!Keysight Technologies,N5232A,MY52221226,A.10.49.03
!Date: Wednesday, April 13, 2016 21:46:12
!Correction: S11(Full 6 Port(1,2,3,4,5,6)) 
!S12(Full 6 Port(1,2,3,4,5,6)) 
!S13(Full 6 Port(1,2,3,4,5,6)) 
!S21(Full 6 Port(1,2,3,4,5,6)) 
!S22(Full 6 Port(1,2,3,4,5,6)) 
!S23(Full 6 Port(1,2,3,4,5,6)) 
!S31(Full 6 Port(1,2,3,4,5,6)) 
!S32(Full 6 Port(1,2,3,4,5,6)) 
!S33(Full 6 Port(1,2,3,4,5,6)) 
!S3P File: Measurements: <S11,S12,S13>,
!<S21,S22,S23>,
!<S31,S32,S33>:
# Hz S  dB   R 50
9999999.9999998 -45.590435 -11.313083 -0.10336503 -0.8616544 -84.702637 60.698132
-0.10714103 -0.84894836 -44.575073 -8.5158262 -90.340477 15.065042
-86.935608 51.565487 -93.414589 72.31945 -1.7687968 179.18605
20000000 -44.856224 -10.877873 -0.11278205 -1.6613265 -82.300774 74.286743
-0.11377308 -1.6451806 -44.803932 -11.341058 -87.560173 54.906322
-80.062607 64.909592 -87.158241 43.441856 -1.7727977 178.39673
30000000 -44.129971 -15.890848 -0.11783071 -2.4425204 -76.979477 81.421715
-0.11623871 -2.4290915 -44.431034 -16.83399 -86.003227 74.930717
-78.050224 78.708115 -88.893036 82.037399 -1.7757518 177.61464
40000000 -43.932198 -18.769487 -0.11905705 -3.2153397 -76.178879 82.53775
-0.12129354 -3.2155349 -44.414215 -20.50642 -87.352158 95.20491
-75.956123 89.648628 -89.514069 70.653122 -1.7803243 176.82256
50000000 -44.004395 -22.794609 -0.12479692 -4.0152025 -74.351097 82.584793
-0.12320798 -4.006793 -44.494099 -24.907505 -86.278587 50.722176
-73.735443 86.463547 -85.647041 78.85302 -1.7837635 176.05446
60000000 -43.371204 -26.476858 -0.12765831 -4.8043203 -71.997269 82.13221
-0.12468904 -4.7858663 -44.051544 -28.061214 -84.966263 83.154518
-72.18087 79.563828 -88.570518 54.947433 -1.7862409 175.29669
70000000 -42.743259 -28.240223 -0.13020554 -5.5795989 -70.944687 81.455391
-0.12891085 -5.5648932 -44.041698 -31.705404 -83.438126 79.775871
-70.524384 83.725655 -83.25946 79.792229 -1.7886174 174.53662
80000000 -41.969677 -30.530342 -0.13267055 -6.3556571 -70.032722 85.39296
-0.13197578 -6.3529806 -43.773422 -37.417454 -80.186798 83.818497
-69.436974 83.921234 -82.606712 80.827713 -1.7913259 173.77757
90000000 -41.453018 -34.331757 -0.13456379 -7.1344461 -68.513947 82.622543
-0.1332265 -7.1404419 -43.375683 -42.70562 -80.022072 93.520004
-68.518028 84.260689 -80.181984 83.138718 -1.7951465 173.03017
100000000 -41.245548 -38.865749 -0.13627934 -7.9145756 -67.782356 82.044426
-0.132891 -7.9216175 -43.078064 -47.775402 -78.210037 87.191162
-67.814545 84.267563 -79.253548 91.820251 -1.7987217 172.28947
110000000 -40.898315 -44.286732 -0.13737687 -8.7044926 -66.816872 83.506569
-0.1349346 -8.7051687 -42.834618 -52.516777 -77.41571 87.446396
-67.12516 82.119011 -78.505104 84.789001 -1.8017075 171.55435
120000000 -40.362865 -47.371868 -0.13930167 -9.4963932 -66.162453 82.972481
-0.13966604 -9.4897842 -42.527973 -55.996765 -77.068344 93.219719
-66.696304 82.731781 -76.679413 83.033974 -1.8059593 170.811
130000000 -39.816257 -49.491879 -0.14127903 -10.283794 -65.739563 81.041237
-0.1415365 -10.276706 -41.845028 -61.167549 -76.107796 94.088165
-65.32634 83.417953 -75.728676 93.096817 -1.8102196 170.06851
140000000 -39.238522 -52.837421 -0.14594467 -11.042912 -64.615395 82.325432
-0.14675026 -11.030781 -40.855984 -67.019356 -75.697105 88.904633
-65.061333 81.896568 -75.68914 87.317406 -1.8120517 169.34734
150000000 -38.837299 -55.590569 -0.14252566 -11.808639 -64.330299 80.150482
-0.14065965 -11.812164 -40.306137 -70.850395 -74.842712 84.309387
-64.312874 80.138077 -75.595825 87.834068 -1.8084092 168.56293
160000000 -38.563457 -58.712677 -0.14644866 -12.589558 -63.742783 79.99836
-0.14459231 -12.590008 -40.407261 -75.467102 -74.438095 87.651108
-63.720001 81.414543 -74.002052 90.973503 -1.8143585 167.77173
170000000 -38.292797 -62.148636 -0.14902218 -13.377542 -63.153557 79.447861
-0.14697723 -13.350865 -40.857094 -80.645195 -73.411575 87.023483
-63.209137 79.061951 -73.626831 85.859512 -1.8207529 167.02237
180000000 -38.096897 -65.195534 -0.15019149 -14.161001 -62.863342 79.233047
-0.14764041 -14.122082 -40.988689 -85.521439 -72.172981 88.096527
-62.516754 80.048416 -73.40686 89.018677 -1.8205031 166.2601
190000000 -37.888927 -65.846107 -0.15108435 -14.942543 -62.036877 78.956917
-0.14743355 -14.91226 -40.631821 -88.554985 -71.835167 86.383385
-62.04443 79.395172 -72.958252 92.061134 -1.8216575 165.48749
200000000 -37.600388 -65.731781 -0.15258475 -15.717032 -61.611893 77.12146
-0.14977872 -15.70423 -40.228405 -88.349747 -72.057838 95.782051
-61.699001 79.062149 -72.185997 88.235992 -1.8222723 164.72572
210000000 -37.328201 -65.648682 -0.15389881 -16.486757 -61.229561 78.73555
-0.15027691 -16.480534 -39.632381 -88.030556 -71.726028 86.999077
-61.141106 77.503609 -71.807587 91.820801 -1.8219371 163.96883
220000000 -37.043575 -66.873932 -0.15535241 -17.25429 -60.842518 78.361099
-0.15153188 -17.256891 -39.21109 -89.011444 -71.562401 89.742874
-60.671886 77.620575 -71.00293 89.358421 -1.8220396 163.22099
230000000 -36.66618 -68.646622 -0.15672585 -18.026148 -60.446819 77.835915
-0.15169358 -18.032608 -38.793606 -90.784859 -71.303192 84.732216
-60.451855 76.068459 -70.620834 87.757225 -1.8232312 162.48625
240000000 -36.282387 -71.279663 -0.15726326 -18.809622 -59.882576 76.479248
-0.15267423 -18.806757 -38.353424 -93.990486 -70.411812 90.402748
-59.895504 76.945717 -70.545952 88.533241 -1.8240108 161.75163
250000000 -35.95578 -74.107208 -0.15852617 -19.584597 -59.628372 76.110641
-0.15486631 -19.585428 -37.851261 -96.759689 -69.606949 91.197243
-59.565872 75.327171 -69.882301 87.976326 -1.8255908 161.01149
260000000 -35.585464 -76.244804 -0.15955268 -20.368586 -59.174332 75.214439
-0.15634888 -20.364635 -37.345276 -98.453018 -69.167274 89.429031
-59.122795 75.146324 -69.215172 83.439377 -1.8280721 160.26761
270000000 -35.295681 -77.67746 -0.1622609 -21.145079 -58.740261 74.728767
-0.15814498 -21.141005 -36.902111 -99.363396 -68.882797 88.555077
-59.047619 74.424828 -69.027969 88.763908 -1.8306926 159.51312
280000000 -35.098236 -79.266296 -0.16318369 -21.921747 -58.496674 75.488678
-0.15932982 -21.920626 -36.593773 -99.683601 -68.399185 87.976967
-58.625568 73.01609 -68.308266 89.29142 -1.8333627 158.73854
290000000 -34.939621 -80.751793 -0.16607329 -22.693148 -58.202209 74.256996
-0.1612107 -22.692827 -36.30265 -99.333603 -67.905159 83.48922
-58.360001 74.401207 -68.13549 86.138649 -1.8344855 157.96082
300000000 -34.915195 -82.120407 -0.16547653 -23.459867 -57.890701 72.719147
-0.16228655 -23.462442 -36.230732 -99.124954 -68.196419 86.162766
-57.967999 72.492393 -67.906174 84.753731 -1.8352253 157.17966
310000000 -34.908211 -83.591072 -0.16455165 -24.240784 -57.647976 72.527771
-0.16350296 -24.240576 -36.110157 -99.065628 -67.831604 86.191689
-57.753876 72.745247 -67.730362 84.286209 -1.8356556 156.4039
320000000 -34.868279 -84.982346 -0.16530004 -25.028311 -57.395962 71.056671
-0.16571455 -25.020601 -35.986389 -99.524956 -67.133423 83.07003
-57.439724 71.725426 -67.317497 87.955994 -1.8350905 155.63997
330000000 -34.775558 -85.896835 -0.16802168 -25.809952 -57.090218 71.119026
-0.16759923 -25.793991 -35.951614 -100.40176 -66.816139 84.114456
-57.072861 71.45298 -66.706703 84.297401 -1.8342296 154.89293
340000000 -34.619251 -87.096207 -0.17052692 -26.57811 -56.820313 70.66687
-0.16965461 -26.566654 -35.926521 -101.91848 -66.560997 83.381485
-56.802555 71.233505 -66.689621 84.908386 -1.8326586 154.16026
350000000 -34.480274 -88.181198 -0.17174193 -27.344299 -56.611229 69.932159
-0.17069516 -27.327271 -35.860844 -102.96381 -66.285789 84.168877
-56.563084 69.96183 -66.210838 83.446106 -1.8321766 153.43933
360000000 -34.251072 -88.493103 -0.17314759 -28.119682 -56.329865 69.283157
-0.17099725 -28.101227 -35.649387 -104.236 -66.015823 85.551544
-56.29171 69.385086 -66.015015 81.237251 -1.8341855 152.73399
370000000 -34.007671 -89.660675 -0.17386253 -28.89459 -56.117992 68.841423
-0.1720463 -28.875902 -35.372993 -105.72371 -65.687477 82.572517
-55.997204 69.041954 -65.673416 81.22139 -1.8370054 152.0385
380000000 -33.805656 -91.000015 -0.17610249 -29.666475 -55.878147 67.706787
-0.17236349 -29.647127 -35.076611 -107.24275 -65.615372 82.140556
-55.844902 68.641136 -65.411705 86.048325 -1.8391887 151.34158
390000000 -33.592148 -92.94928 -0.17729531 -30.431454 -55.678226 66.919556
-0.1724638 -30.418613 -34.726265 -108.49123 -65.292938 84.703583
-55.618958 67.789314 -65.001976 81.903381 -1.8421233 150.63269
400000000 -33.355045 -94.91584 -0.17794162 -31.20643 -55.371059 67.025482
-0.17157367 -31.189411 -34.366982 -109.48807 -64.718864 81.596649
-55.4021 66.514175 -64.848442 83.286095 -1.8444837 149.91254
410000000 -33.133713 -97.054459 -0.17918512 -31.97537 -55.129478 66.434242
-0.1710892 -31.977755 -34.038803 -110.37431 -64.694145 81.399414
-55.271488 66.81118 -64.69165 82.119652 -1.8471853 149.18039
420000000 -32.938614 -98.79628 -0.17851567 -32.747711 -54.980801 65.877075
-0.1728597 -32.765453 -33.73888 -110.59364 -64.304153 81.430946
-54.956539 65.59549 -64.617775 80.574715 -1.8477485 148.43912
430000000 -32.784081 -101.38531 -0.17750712 -33.534126 -54.628178 65.481651
-0.17561495 -33.54467 -33.455261 -110.54021 -64.17244 81.847832
-54.733894 65.029015 -64.063728 82.247749 -1.8447325 147.67531
440000000 -32.778732 -103.18462 -0.17727855 -34.325172 -54.549839 64.626823
-0.17749086 -34.317745 -33.286182 -109.99493 -63.885654 79.132484
-54.507862 63.861301 -63.88612 80.51049 -1.8420496 146.89137
450000000 -32.722229 -104.68606 -0.17770213 -35.111599 -54.342724 63.86977
-0.17898528 -35.089287 -33.130943 -109.92316 -63.642731 80.23642
-54.344925 63.691753 -64.058792 80.688072 -1.8419163 146.10954
460000000 -32.774845 -106.09702 -0.18029229 -35.891731 -54.147781 63.361229
-0.17933355 -35.856216 -33.091827 -110.0066 -63.427872 80.91835
-54.108837 63.34256 -63.533188 79.810326 -1.8413141 145.34096
470000000 -32.761471 -107.50532 -0.18246102 -36.665813 -53.927128 62.830677
-0.17971504 -36.633919 -33.016479 -110.24314 -63.283867 80.404175
-53.941578 62.55732 -63.355034 79.468567 -1.8405119 144.59717
480000000 -32.76025 -109.11134 -0.18448119 -37.427475 -53.759354 61.727352
-0.18155174 -37.413006 -33.003475 -110.71846 -63.071785 79.980804
-53.756783 62.158733 -62.799019 79.186409 -1.8415436 143.88347
490000000 -32.691071 -110.52448 -0.1851863 -38.196453 -53.66243 61.192368
-0.18284483 -38.182377 -32.890526 -111.40222 -62.899586 78.259781
-53.632343 61.393681 -62.750465 76.669731 -1.8428968 143.19067
500000000 -32.499905 -112.3513 -0.1858395 -38.974373 -53.419563 60.994827
-0.18380339 -38.964474 -32.594311 -112.6208 -62.663357 79.32914
-53.429764 61.34869 -62.395721 77.487556 -1.8454963 142.50267
510000000 -32.199238 -114.40705 -0.18709907 -39.745628 -53.192787 60.404022
-0.18584338 -39.737633 -32.286777 -113.86929 -62.467354 75.627083
-53.157539 60.05228 -62.525211 76.551277 -1.8476515 141.81389
520000000 -31.878902 -116.27147 -0.18969177 -40.523109 -53.178211 59.927895
-0.18653214 -40.504272 -31.921621 -115.21184 -61.952194 77.071548
-53.042542 60.223835 -62.178406 75.797394 -1.8497193 141.10854
530000000 -31.553823 -118.18126 -0.19084643 -41.298733 -52.873241 59.294914
-0.18857063 -41.281315 -31.57865 -115.93007 -62.035973 76.083115
-52.852013 59.592514 -62.059902 77.598579 -1.8529565 140.38515
540000000 -31.222942 -120.03217 -0.19184709 -42.067234 -52.695301 58.706993
-0.19100724 -42.053841 -31.219587 -116.65916 -61.611557 74.990616
-52.665321 58.875698 -61.881542 74.937538 -1.8570889 139.64243
550000000 -30.909536 -121.90015 -0.19332938 -42.841953 -52.537224 58.379383
-0.19091845 -42.825424 -30.88736 -117.10307 -61.251125 76.102692
-52.60157 57.458229 -61.561924 76.15329 -1.8604053 138.8826
560000000 -30.675962 -123.62384 -0.19419342 -43.618587 -52.346378 57.366253
-0.19119547 -43.606838 -30.585489 -117.68934 -61.250473 75.62236
-52.395332 57.212494 -61.223278 75.486542 -1.8613482 138.10643
570000000 -30.496452 -125.89243 -0.19593942 -44.395561 -52.215523 57.197567
-0.19318999 -44.382679 -30.380432 -117.94454 -61.018013 72.927383
-52.238045 57.257717 -60.983189 73.4338 -1.861398 137.3269
580000000 -30.35531 -127.5667 -0.19789837 -45.168835 -52.116222 55.826
-0.19463053 -45.160248 -30.211802 -118.53712 -60.851738 73.790764
-52.159416 56.305935 -60.825146 72.84906 -1.8609724 136.55577
590000000 -30.203062 -128.97258 -0.19885601 -45.945114 -51.934109 55.795715
-0.19567733 -45.937119 -30.021578 -118.95224 -60.904449 71.919449
-51.902805 55.569973 -60.638699 71.773903 -1.8594625 135.80531
600000000 -30.042913 -130.2802 -0.1995696 -46.72226 -51.829239 54.927639
-0.19758998 -46.715008 -29.886583 -119.60629 -60.890339 73.691002
-51.764317 55.115959 -60.741573 72.080772 -1.8582368 135.07137
610000000 -29.907185 -131.10573 -0.20190184 -47.487217 -51.656189 54.656292
-0.19838214 -47.486683 -29.765314 -120.10217 -60.285751 73.166107
-51.617577 54.329918 -60.446648 71.184731 -1.857794 134.36394
620000000 -29.735712 -131.86281 -0.2033774 -48.256222 -51.463371 54.186932
-0.2002071 -48.255764 -29.603773 -121.01962 -60.361122 72.242508
-51.386986 54.074657 -60.26506 71.149406 -1.8595482 133.68105
630000000 -29.521383 -132.27829 -0.20425656 -49.038185 -51.279259 53.404633
-0.1999727 -49.028217 -29.399778 -122.07052 -60.086044 70.551941
-51.352436 53.841904 -60.11552 71.253571 -1.8636614 133.0036
640000000 -29.300329 -133.01283 -0.20459101 -49.80698 -51.169937 52.921707
-0.20167291 -49.80162 -29.206589 -123.22176 -59.931023 71.195412
-51.164333 52.929253 -59.921272 70.678009 -1.8667641 132.3129
650000000 -29.084538 -133.64798 -0.20546697 -50.582806 -50.966156 51.895153
-0.20423056 -50.568966 -28.968298 -124.56528 -59.87859 72.335922
-50.984531 52.386639 -59.849701 69.897713 -1.8702537 131.60838
660000000 -28.843403 -134.8439 -0.20614655 -51.361149 -50.856495 51.421375
-0.2050951 -51.340424 -28.78931 -126.14079 -59.672077 71.358299
-50.848728 51.338718 -59.642529 70.992149 -1.8729606 130.8757
670000000 -28.612301 -135.87018 -0.20852549 -52.132301 -50.695976 51.204948
-0.2073403 -52.117275 -28.622791 -127.39543 -59.405243 69.874336
-50.749649 51.008133 -59.556236 70.079407 -1.8762748 130.11417
680000000 -28.429033 -137.03203 -0.20985837 -52.897602 -50.559357 49.903996
-0.20864256 -52.893776 -28.410854 -128.32753 -59.250839 69.12336
-50.527088 50.22031 -59.19696 69.817291 -1.8795707 129.32851
690000000 -28.176447 -138.05325 -0.21019442 -53.66613 -50.500511 49.778786
-0.20946249 -53.674866 -28.197062 -129.11609 -59.118542 68.982254
-50.452126 49.723728 -58.90921 68.553154 -1.8813808 128.52483
700000000 -27.954857 -138.91196 -0.20923926 -54.437366 -50.323448 48.567139
-0.2107306 -54.449448 -28.005402 -129.94522 -58.91713 67.958672
-50.321877 48.896038 -58.929817 66.876076 -1.8816888 127.71554
710000000 -27.804544 -139.98079 -0.21013631 -55.214176 -50.172707 48.11591
-0.21141097 -55.226051 -27.900681 -130.71979 -58.531147 67.788422
-50.188137 48.196293 -58.763168 67.942963 -1.8811015 126.91386
720000000 -27.676949 -140.6624 -0.21214812 -55.99157 -50.101582 47.510704
-0.21155936 -56.000546 -27.802179 -131.58464 -58.500435 66.720421
-50.129295 47.196732 -58.529758 68.376305 -1.8802447 126.13421
730000000 -27.56616 -141.16251 -0.21242946 -56.769897 -49.96986 46.800365
-0.21316321 -56.771442 -27.725058 -132.2347 -58.242123 68.547523
-49.995663 47.302975 -58.42812 67.162979 -1.8792974 125.38326
740000000 -27.446852 -141.99588 -0.21390337 -57.54998 -49.928608 46.375519
-0.21432069 -57.545219 -27.646839 -133.19725 -58.292503 66.635262
-49.86232 46.431534 -58.17889 66.929131 -1.8794354 124.66395
750000000 -27.328104 -142.57747 -0.21552101 -58.329735 -49.78299 46.444187
-0.21423927 -58.322945 -27.546452 -134.28116 -57.97781 65.416473
-49.738956 46.753674 -58.210567 65.120026 -1.8788105 123.96597
760000000 -27.180319 -143.47385 -0.21714477 -59.095413 -49.64286 45.693619
-0.21551026 -59.092548 -27.380812 -135.48999 -57.939861 64.524513
-49.604111 45.925957 -57.617359 64.408203 -1.8796214 123.28008
770000000 -27.050404 -144.24686 -0.21798837 -59.873985 -49.469456 44.999149
-0.21739878 -59.872673 -27.226786 -136.54156 -57.651325 65.461243
-49.48061 44.990238 -57.802418 65.308235 -1.8808763 122.59898
780000000 -26.869781 -145.11087 -0.21852314 -60.648277 -49.412338 44.291859
-0.21774544 -60.650257 -27.030977 -137.72589 -57.494175 64.698112
-49.374866 44.36866 -57.474636 64.806725 -1.882576 121.90111
790000000 -26.649454 -146.08905 -0.21928979 -61.428844 -49.279594 43.510544
-0.21800587 -61.426891 -26.843124 -139.05157 -57.394138 63.474819
-49.220032 43.710064 -57.474213 62.823235 -1.8849086 121.18204
800000000 -26.442038 -147.20761 -0.22160013 -62.196598 -49.117886 43.389202
-0.21963251 -62.195961 -26.65167 -139.9826 -57.116505 62.95063
-49.0951 43.527905 -57.272877 62.802723 -1.8862818 120.44323
810000000 -26.289589 -148.18352 -0.22374709 -62.977543 -49.00325 42.385624
-0.22166686 -62.967373 -26.471033 -140.61926 -57.073112 61.629215
-49.037205 42.435944 -57.170952 62.696342 -1.8883662 119.68671
820000000 -26.120699 -149.03346 -0.22591206 -63.75119 -48.866295 41.53791
-0.22382979 -63.745461 -26.286541 -141.25987 -56.944538 62.489864
-48.912674 42.151474 -56.91684 62.697498 -1.8909968 118.8969
830000000 -25.986168 -150.04442 -0.22765672 -64.520393 -48.797314 41.151325
-0.22652914 -64.510551 -26.164249 -142.04449 -57.088943 60.428844
-48.810009 41.532146 -56.767197 60.75378 -1.8920612 118.09927
840000000 -25.851023 -150.9413 -0.22841604 -65.290749 -48.768246 40.095711
-0.22769414 -65.280434 -26.017609 -142.72061 -56.597298 60.706989
-48.658546 40.992386 -56.568871 59.345375 -1.8920852 117.30565
850000000 -25.759027 -151.71031 -0.2278482 -66.068291 -48.63974 39.620953
-0.22855343 -66.052139 -25.951223 -143.55141 -56.466373 59.925465
-48.617012 39.695221 -56.434265 60.367199 -1.8919467 116.54539
860000000 -25.691605 -152.53723 -0.22983046 -66.840286 -48.47739 39.33144
-0.228486 -66.820694 -25.874046 -144.32536 -56.372929 59.992817
-48.407288 39.301891 -56.351444 60.141579 -1.8917285 115.8087
870000000 -25.583996 -152.9684 -0.23084888 -67.618484 -48.380009 38.989014
-0.23111635 -67.606712 -25.767321 -145.32059 -56.456081 60.383286
-48.333565 38.847958 -56.225491 57.907219 -1.891142 115.0947
880000000 -25.436792 -153.6908 -0.23271164 -68.392471 -48.271717 38.398651
-0.23190841 -68.386711 -25.641766 -146.41513 -56.168697 57.430897
-48.300877 38.504765 -56.00634 57.741299 -1.891992 114.39849
890000000 -25.330761 -154.32103 -0.23497318 -69.158569 -48.114376 37.684544
-0.2330468 -69.160408 -25.513165 -147.60013 -56.093716 57.99894
-48.119301 38.080326 -55.966785 57.31485 -1.8929429 113.71076
900000000 -25.172422 -155.09773 -0.23507899 -69.934265 -48.077339 37.038952
-0.23438542 -69.9244 -25.374535 -149.01538 -55.982681 56.665512
-48.076443 37.29884 -55.850708 56.720337 -1.8949958 113.01909
910000000 -25.019293 -155.6376 -0.23626235 -70.706291 -47.941856 36.163605
-0.23454835 -70.70118 -25.227375 -150.21429 -55.658268 56.317753
-47.900723 36.256927 -55.83931 56.853054 -1.8966538 112.30371
920000000 -24.878378 -156.38631 -0.23820119 -71.491394 -47.816326 36.145893
-0.23652084 -71.46727 -25.058388 -151.3063 -55.620338 55.629089
-47.823021 35.902435 -55.777641 56.60144 -1.9002161 111.56463
930000000 -24.712009 -157.1104 -0.23861341 -72.262894 -47.719681 35.123268
-0.23658229 -72.239876 -24.941126 -152.48233 -55.559135 55.081711
-47.741547 35.376987 -55.564079 55.03756 -1.9034908 110.79727
940000000 -24.555899 -158.00655 -0.24235791 -73.03891 -47.595585 34.689285
-0.23805532 -73.016205 -24.776651 -153.45444 -55.618027 54.932636
-47.617481 34.41111 -55.352474 54.807846 -1.9063194 110.0083
950000000 -24.386429 -158.87112 -0.24435584 -73.814278 -47.480232 33.697155
