!Keysight Technologies,N5232A,MY52221226,A.10.49.03
!Date: Wednesday, April 13, 2016 22:14:20
!Correction: S11(Full 6 Port(1,2,3,4,5,6)) 
!S12(Full 6 Port(1,2,3,4,5,6)) 
!S13(Full 6 Port(1,2,3,4,5,6)) 
!S21(Full 6 Port(1,2,3,4,5,6)) 
!S22(Full 6 Port(1,2,3,4,5,6)) 
!S23(Full 6 Port(1,2,3,4,5,6)) 
!S31(Full 6 Port(1,2,3,4,5,6)) 
!S32(Full 6 Port(1,2,3,4,5,6)) 
!S33(Full 6 Port(1,2,3,4,5,6)) 
!S3P File: Measurements: <S11,S12,S13>,
!<S21,S22,S23>,
!<S31,S32,S33>:
# Hz S  dB   R 50
9999999.9999998 -45.328655 -9.8241272 -0.10546003 -0.86880553 -84.69735 70.109131
-0.11066237 -0.858661 -44.341061 -7.2729964 -97.140289 41.320759
-85.851334 73.396889 -92.082253 9.4879475 -1.7854551 179.18318
20000000 -44.69342 -8.7608852 -0.11529094 -1.6745453 -80.277061 63.066628
-0.1171948 -1.6564454 -44.642311 -9.0264463 -87.133072 36.614525
-80.787521 66.83931 -85.870865 59.745682 -1.7889837 178.38261
30000000 -44.031105 -12.47073 -0.12069947 -2.4543042 -78.246452 82.875832
-0.12019771 -2.4436026 -44.374527 -13.445263 -88.021645 71.818192
-77.931732 81.288719 -87.71814 57.723213 -1.7926795 177.59779
40000000 -43.791531 -14.795209 -0.12157126 -3.2301264 -76.472488 86.019501
-0.12517239 -3.2305706 -44.326115 -16.486599 -92.366501 79.390244
-76.270195 84.967194 -85.350784 77.198875 -1.7980448 176.80496
50000000 -43.848526 -18.311022 -0.12727438 -4.0328403 -74.266304 87.204865
-0.12759089 -4.0215921 -44.433479 -19.971888 -84.239723 78.195702
-73.602333 81.320984 -86.861778 83.432655 -1.8019304 176.03772
60000000 -43.191853 -22.285358 -0.13081679 -4.8201265 -72.266754 84.310173
-0.12932597 -4.7996116 -44.056416 -23.259413 -83.393669 76.601021
-71.984032 79.96431 -85.637451 88.244453 -1.8045367 175.28238
70000000 -42.572701 -24.320438 -0.13342465 -5.5945158 -71.252754 85.836014
-0.13349417 -5.579926 -44.011211 -26.92312 -82.935844 72.255264
-71.189392 83.50061 -79.902863 81.904518 -1.8069147 174.51987
80000000 -41.834335 -26.533394 -0.13611159 -6.3719234 -69.64756 82.840179
-0.13644534 -6.3695254 -43.876785 -32.218151 -80.807198 59.945232
-69.603378 83.854073 -81.726349 90.155617 -1.8100349 173.76192
90000000 -41.358253 -30.416769 -0.13828509 -7.1529155 -68.616753 82.217232
-0.13768363 -7.1581669 -43.540157 -37.68084 -80.210091 87.971649
-69.026909 86.195282 -78.861694 79.735275 -1.8133633 173.01083
100000000 -41.184544 -34.597263 -0.13999723 -7.9328876 -67.730812 82.690605
-0.1379184 -7.9379091 -43.334705 -42.542278 -78.276497 93.69976
-67.947975 84.954468 -79.262741 87.555969 -1.8173107 172.26785
110000000 -40.902828 -39.759678 -0.14102107 -8.723525 -66.813316 83.247581
-0.13998568 -8.7215118 -43.177341 -46.986679 -78.54171 89.729538
-66.604408 82.718063 -77.87883 92.872025 -1.820212 171.52771
120000000 -40.402557 -42.452343 -0.14339513 -9.5144215 -66.235771 80.767914
-0.1448604 -9.5084877 -42.944996 -50.460972 -76.889999 90.092361
-66.039139 80.900803 -76.601639 88.474068 -1.8245633 170.78029
130000000 -39.861465 -44.783249 -0.14500035 -10.304589 -65.519493 83.828201
-0.14672686 -10.291778 -42.310543 -55.966915 -76.007149 87.173401
-65.569412 82.288795 -76.091934 92.554321 -1.8288268 170.03098
140000000 -39.315128 -48.168198 -0.14985335 -11.065639 -64.653679 80.437202
-0.15105616 -11.058721 -41.38102 -62.649521 -75.774696 91.330269
-64.596848 81.402252 -75.824684 90.249397 -1.8304999 169.30263
150000000 -38.965046 -51.384056 -0.1474718 -11.830874 -64.127625 81.440018
-0.14657003 -11.834045 -40.887211 -67.391243 -74.957794 87.966896
-63.985405 80.556923 -74.577377 89.520699 -1.8276529 168.52806
160000000 -38.750511 -54.550453 -0.15094534 -12.609489 -63.464596 81.034584
-0.15026617 -12.612453 -41.133141 -72.284508 -74.601433 88.788612
-63.427799 80.415802 -74.378281 89.239227 -1.8317685 167.73672
170000000 -38.498749 -57.699608 -0.15327385 -13.399538 -62.954453 79.785057
-0.15257691 -13.374463 -41.702133 -77.394279 -73.438576 84.07019
-62.670986 80.419006 -72.6129 85.894096 -1.8369452 166.97353
180000000 -38.277306 -60.510185 -0.15498072 -14.18461 -62.514381 79.419205
-0.15333332 -14.146057 -41.872189 -82.308357 -73.164688 84.698433
-62.717968 78.620422 -72.580582 87.520828 -1.8383271 166.20482
190000000 -38.017483 -61.190025 -0.15588237 -14.966388 -61.790062 78.226563
-0.15345711 -14.93704 -41.521412 -85.961906 -72.673752 91.450684
-61.951572 79.492798 -72.399811 92.171768 -1.8395101 165.43089
200000000 -37.686867 -61.264133 -0.15759182 -15.743393 -61.416649 79.24231
-0.15581298 -15.727699 -41.057926 -86.278625 -72.074066 91.18425
-61.449211 78.645706 -72.429199 91.186882 -1.8397623 164.66489
210000000 -37.422047 -61.204472 -0.15904014 -16.511869 -61.184765 78.684685
-0.15609516 -16.504549 -40.47467 -86.005035 -71.302879 95.79953
-61.07592 78.62468 -71.6548 92.859558 -1.8389592 163.90396
220000000 -37.144135 -62.382713 -0.16067079 -17.279097 -60.644051 76.962563
-0.15765376 -17.28054 -40.079193 -86.939232 -71.343071 85.844055
-60.629234 77.740845 -70.695602 90.516289 -1.8391597 163.1525
230000000 -36.770252 -63.934799 -0.16226487 -18.048805 -60.391647 76.63784
-0.15765265 -18.055279 -39.661472 -89.021561 -70.759415 88.910873
-60.250381 77.227158 -70.793549 87.089127 -1.8399861 162.41081
240000000 -36.418316 -66.67952 -0.1628467 -18.834026 -59.796005 76.26297
-0.15886016 -18.833124 -39.248966 -92.352119 -70.096313 83.075165
-59.778969 75.949776 -70.416405 85.620232 -1.8415366 161.6721
250000000 -36.113159 -69.512039 -0.16372915 -19.6105 -59.379387 75.682373
-0.16086854 -19.611023 -38.696968 -95.63578 -69.356316 89.789764
-59.403717 77.149078 -69.257462 85.95813 -1.8425391 160.92953
260000000 -35.761326 -71.783218 -0.16484004 -20.393389 -59.203373 74.800323
-0.16262844 -20.388948 -38.130646 -97.420013 -69.391388 84.187958
-59.068836 74.550224 -69.100365 89.002907 -1.8447051 160.1834
270000000 -35.454113 -73.464615 -0.16705391 -21.168119 -58.671978 74.295906
-0.16391872 -21.167885 -37.67297 -98.52327 -68.859856 88.287971
-58.858955 74.4561 -68.945755 88.686897 -1.8471892 159.42638
280000000 -35.283237 -75.186165 -0.16861601 -21.945749 -58.539894 73.933502
-0.16521922 -21.945181 -37.354202 -98.99321 -68.488152 88.122162
-58.636871 74.359802 -68.080254 86.214783 -1.8487228 158.65137
290000000 -35.142239 -76.764351 -0.17097725 -22.716438 -58.063957 74.097183
-0.16703625 -22.716803 -37.050846 -98.83371 -67.907982 85.341576
-58.213692 73.309563 -68.337959 80.912849 -1.8493025 157.87135
300000000 -35.12928 -78.023903 -0.17044377 -23.485569 -57.816547 72.714287
-0.16820355 -23.489883 -37.005459 -98.742348 -68.071037 85.593491
-57.960155 72.824356 -67.671806 84.186554 -1.8500189 157.0864
310000000 -35.10915 -79.283966 -0.16940954 -24.266548 -57.54171 72.638
-0.16852178 -24.26853 -36.911041 -98.458 -67.558929 85.292709
-57.479679 72.869194 -67.43502 83.398766 -1.851481 156.30708
320000000 -35.047924 -80.536934 -0.16996706 -25.055099 -57.254211 71.932579
-0.17137729 -25.048777 -36.762798 -98.934883 -67.295609 83.784676
-57.311043 70.901001 -66.990074 89.128502 -1.8512025 155.54318
330000000 -34.928612 -81.423187 -0.17275123 -25.838842 -56.931908 71.380409
-0.1735003 -25.82456 -36.7141 -99.724525 -66.750618 85.181984
-57.085701 71.598961 -66.462013 84.532875 -1.8499035 154.79271
340000000 -34.779659 -82.608391 -0.17510127 -26.607866 -56.753689 70.844116
-0.17600076 -26.599031 -36.697285 -101.63464 -66.705215 85.260826
-56.671955 70.318481 -66.644707 83.969025 -1.8484195 154.05782
350000000 -34.665134 -83.701263 -0.17681408 -27.377588 -56.467133 70.232109
-0.17768662 -27.360304 -36.655724 -102.99033 -66.075813 84.501755
-56.472492 70.100655 -66.313995 83.983963 -1.8479245 153.33557
360000000 -34.436871 -83.943359 -0.17861576 -28.153845 -56.210773 69.842873
-0.17815074 -28.132584 -36.465519 -104.33797 -65.943192 83.60363
-56.203365 69.501381 -65.956177 83.396423 -1.8501493 152.62421
370000000 -34.194897 -85.135544 -0.17998615 -28.926872 -55.948452 68.502068
-0.17893665 -28.900999 -36.217991 -105.93046 -65.67984 82.299065
-55.947655 68.90332 -65.727318 82.515045 -1.853309 151.9245
380000000 -33.978153 -86.496895 -0.18257211 -29.693125 -55.64325 68.596512
-0.1791684 -29.67024 -35.910568 -107.18176 -65.508705 83.218155
-55.81485 68.637825 -65.635956 80.238838 -1.856048 151.22243
390000000 -33.783379 -88.62384 -0.18382098 -30.452574 -55.455471 68.026443
-0.17869149 -30.440289 -35.494656 -108.70594 -65.070389 83.187263
-55.457081 67.142212 -64.911301 81.437531 -1.8589277 150.51154
400000000 -33.551952 -90.766182 -0.18338887 -31.225491 -55.324917 66.905235
-0.17687337 -31.211739 -35.094307 -110.08447 -64.687889 81.742577
-55.278065 66.76503 -64.841255 82.001541 -1.8614687 149.79527
410000000 -33.347782 -92.992729 -0.18411413 -31.992609 -55.08345 66.714432
-0.17574972 -32.005157 -34.767387 -111.04206 -64.560211 82.98423
-55.013988 67.017677 -64.434067 82.185677 -1.8640933 149.06528
420000000 -33.140751 -94.735733 -0.18188596 -32.768505 -54.868561 66.465263
-0.17768487 -32.797478 -34.452621 -111.28123 -64.263245 80.411568
-54.801617 65.99604 -64.353333 81.512009 -1.8635459 148.32788
430000000 -32.99398 -97.434624 -0.17981005 -33.56041 -54.632706 64.77282
-0.18167695 -33.581295 -34.187706 -111.27538 -64.129074 81.508408
-54.66069 65.60244 -63.990845 80.062309 -1.8587844 147.56749
440000000 -32.986115 -99.049492 -0.1797875 -34.358444 -54.411472 65.060516
-0.18359673 -34.355064 -34.009434 -110.67588 -63.835583 80.25647
-54.384956 64.34996 -63.989769 77.346809 -1.8553512 146.7756
450000000 -32.91119 -100.27361 -0.18076967 -35.147232 -54.162857 63.486973
-0.18562357 -35.123066 -33.845959 -110.67946 -63.659401 81.013489
-54.284237 64.041649 -63.61607 80.702072 -1.8551261 145.98584
460000000 -32.958607 -101.58976 -0.18377924 -35.931095 -54.050873 63.156746
-0.18573307 -35.888081 -33.83857 -110.80006 -63.464901 81.340454
-54.050243 63.819008 -63.651638 78.159935 -1.8544794 145.20937
470000000 -32.945572 -103.03195 -0.18686588 -36.707672 -53.779171 62.576897
-0.185109 -36.665405 -33.767654 -111.22865 -63.117481 79.815971
-53.839142 62.795967 -63.07143 79.38784 -1.8535663 144.46194
480000000 -32.971504 -104.36235 -0.18914895 -37.468197 -53.638004 62.271164
-0.18590732 -37.450241 -33.78891 -111.85381 -62.72559 78.128571
-53.662708 62.034061 -62.815567 79.499649 -1.8541521 143.74364
490000000 -32.913177 -105.59503 -0.19044693 -38.237007 -53.519108 61.613689
-0.18681306 -38.223934 -33.715237 -112.62315 -62.750622 78.006844
-53.446503 61.523106 -62.657345 76.976982 -1.8572016 143.04887
500000000 -32.730019 -107.47468 -0.19015923 -39.015793 -53.317024 60.80682
-0.18869735 -39.009953 -33.403923 -114.00212 -62.228359 79.335091
-53.256306 61.504978 -62.408836 75.957512 -1.8589873 142.36168
510000000 -32.433189 -109.50571 -0.19171079 -39.786522 -53.080635 60.55529
-0.19119723 -39.782299 -33.072617 -115.37611 -62.228374 77.289101
-53.056786 59.989197 -62.179394 77.186317 -1.8612626 141.67468
520000000 -32.126762 -111.55704 -0.1943446 -40.566437 -52.932316 59.774956
-0.19208707 -40.549957 -32.688324 -116.8183 -62.002365 77.489334
-52.91222 60.210052 -62.119015 75.851395 -1.8638204 140.96703
530000000 -31.819523 -113.45129 -0.19593126 -41.339462 -52.756149 59.539707
-0.19439092 -41.325226 -32.347542 -117.61375 -61.810783 75.875992
-52.779716 59.139629 -61.798237 76.180336 -1.8664817 140.24202
540000000 -31.493378 -115.34829 -0.19701175 -42.109375 -52.593918 58.397087
-0.19671832 -42.097664 -31.990099 -118.30631 -61.798962 75.847198
-52.619362 58.586056 -61.669365 75.824051 -1.8705345 139.49541
550000000 -31.203936 -117.15992 -0.19798395 -42.88533 -52.408115 58.464924
-0.19702038 -42.868847 -31.660477 -118.68339 -61.475971 74.209023
-52.546837 57.894596 -61.205486 73.564178 -1.8742936 138.73083
560000000 -30.973467 -118.83226 -0.19857486 -43.660999 -52.243992 57.646164
-0.19739753 -43.647465 -31.355156 -119.32077 -61.215672 74.749954
-52.256046 56.898399 -60.974613 75.573914 -1.8757281 137.95445
570000000 -30.804686 -121.04044 -0.20050555 -44.436249 -52.175297 56.303699
-0.19911107 -44.426441 -31.164341 -119.60416 -61.06834 73.080215
-52.166462 57.146908 -60.89006 73.184341 -1.8756396 137.17058
580000000 -30.682156 -122.63914 -0.20285296 -45.213047 -51.939358 56.152405
-0.20059334 -45.203327 -31.008108 -120.21642 -60.650124 70.929939
-52.031174 55.98724 -60.618271 73.337097 -1.875053 136.39853
590000000 -30.536129 -123.90914 -0.20344451 -45.98885 -51.770432 55.980461
-0.20177799 -45.981037 -30.833229 -120.8604 -60.574863 73.100342
-51.824078 55.289776 -60.641499 72.05146 -1.8733466 135.64722
600000000 -30.397778 -125.17017 -0.20405069 -46.762817 -51.674603 54.963745
-0.20332739 -46.75848 -30.716055 -121.66026 -60.382477 70.470993
-51.638168 55.185345 -60.668213 72.144096 -1.8716679 134.91222
610000000 -30.266848 -125.9155 -0.20628305 -47.530441 -51.562416 54.489185
-0.20443505 -47.529896 -30.6259 -122.36163 -60.385715 72.332283
-51.511639 54.831429 -60.433521 71.52858 -1.8708827 134.20174
620000000 -30.096905 -126.59149 -0.20832391 -48.298866 -51.370716 53.980465
-0.2056268 -48.29797 -30.469719 -123.37214 -60.161812 72.224731
-51.379688 53.909 -60.308064 70.290077 -1.8729713 133.51646
630000000 -29.873793 -126.8521 -0.20904467 -49.079945 -51.286095 53.77562
-0.20501792 -49.073517 -30.256262 -124.51753 -59.917683 71.697456
-51.214417 53.296032 -59.908195 70.427956 -1.8772538 132.83839
640000000 -29.629652 -127.60799 -0.20857421 -49.851856 -51.035103 52.57505
-0.20687707 -49.846626 -30.048721 -125.85702 -59.811028 71.100464
-51.089085 53.098251 -59.968723 69.685631 -1.8810906 132.14919
650000000 -29.404783 -128.25806 -0.20926023 -50.628536 -50.839096 51.75087
-0.20869784 -50.615696 -29.786705 -127.24476 -59.725533 71.732651
-50.846771 51.912991 -59.862206 70.571503 -1.8840778 131.44167
660000000 -29.15163 -129.54938 -0.21003976 -51.406269 -50.856461 51.77063
-0.21013401 -51.387665 -29.583706 -129.06056 -59.45591 69.726135
-50.729595 51.990818 -59.252151 70.360184 -1.8861638 130.70714
670000000 -28.91921 -130.67853 -0.21242307 -52.18092 -50.656715 51.206463
-0.21241648 -52.164993 -29.395882 -130.46756 -59.453339 71.179962
-50.577671 51.196648 -59.287777 69.368111 -1.8886441 129.93782
680000000 -28.73378 -131.76297 -0.21380481 -52.948601 -50.498314 49.733192
-0.21423291 -52.942677 -29.18433 -131.47597 -59.049088 68.075195
-50.531448 50.296337 -59.21854 69.376801 -1.8917676 129.14879
690000000 -28.471048 -132.85558 -0.21403511 -53.716244 -50.42585 49.687141
-0.21505262 -53.722866 -28.966883 -132.31732 -59.06274 68.418877
-50.362106 49.190258 -58.948582 68.312225 -1.8940208 128.33597
700000000 -28.249537 -133.63362 -0.21350177 -54.488911 -50.284882 48.933208
-0.21655825 -54.499245 -28.779463 -133.21732 -58.678982 68.847702
-50.175655 49.223465 -58.754524 67.33252 -1.8946378 127.52429
710000000 -28.090019 -134.69756 -0.21469107 -55.266113 -50.144836 48.120853
-0.21706082 -55.275097 -28.66386 -134.04684 -58.696148 67.219849
-50.131199 48.075764 -58.581539 67.992317 -1.8935574 126.72312
720000000 -27.957396 -135.37874 -0.2168362 -56.041523 -50.018715 47.781551
-0.21698324 -56.050331 -28.554272 -135.10938 -58.299255 67.216202
-50.037743 47.388142 -58.433277 67.74823 -1.8921831 125.94042
730000000 -27.832394 -135.80228 -0.21730332 -56.818001 -49.917664 47.001411
-0.21919633 -56.82151 -28.501999 -135.89735 -58.236229 66.141335
-49.94072 47.132248 -58.287598 66.859955 -1.8908629 125.18946
740000000 -27.70857 -136.62016 -0.21921201 -57.599049 -49.915688 46.663754
-0.21975517 -57.594532 -28.413832 -137.04562 -57.935268 65.628944
-49.738697 46.891823 -57.970146 65.536766 -1.8899873 124.46593
750000000 -27.590183 -137.12033 -0.22063892 -58.382061 -49.692814 46.087074
-0.21936817 -58.373325 -28.315758 -138.19641 -57.890739 65.455536
-49.680538 46.519936 -57.982166 64.962059 -1.8893428 123.76463
760000000 -27.431002 -137.98763 -0.22194047 -59.144966 -49.52169 45.824665
-0.2211041 -59.144672 -28.147753 -139.56114 -57.776737 64.611389
-49.556255 46.163864 -57.870651 64.849449 -1.8906629 123.07298
770000000 -27.292847 -138.65184 -0.22249646 -59.929638 -49.417591 44.861
-0.22278306 -59.925991 -27.978577 -140.67622 -57.697861 64.4524
-49.417046 45.214058 -57.723759 64.338974 -1.8916802 122.38936
780000000 -27.093355 -139.55458 -0.22295786 -60.700104 -49.257626 44.564102
-0.22303523 -60.70554 -27.759739 -141.87398 -57.630642 64.695374
-49.230446 44.809166 -57.436295 63.040768 -1.8935539 121.68964
790000000 -26.862196 -140.60477 -0.22377135 -61.477749 -49.15226 44.077888
-0.22320472 -61.480331 -27.540255 -143.35016 -57.446774 62.92947
-49.12859 43.859276 -57.360188 61.867321 -1.8956012 120.96725
800000000 -26.668146 -141.75467 -0.22612174 -62.248062 -49.051712 42.917942
-0.22473983 -62.250729 -27.337214 -144.34492 -57.151196 62.845379
-48.952293 43.355309 -57.267109 61.91169 -1.8969719 120.22218
810000000 -26.517063 -142.70175 -0.22788775 -63.027798 -48.907059 42.247654
-0.22652087 -63.023167 -27.155249 -145.04079 -57.018208 61.465141
-48.878792 42.504219 -56.926819 60.992184 -1.8993099 119.46159
820000000 -26.353867 -143.59717 -0.23022678 -63.806255 -48.790359 41.911644
-0.22821561 -63.803215 -26.986643 -145.68561 -56.915478 60.616161
-48.748867 42.115795 -57.098339 61.296726 -1.9007509 118.6657
830000000 -26.219704 -144.57759 -0.23173457 -64.572914 -48.706013 41.304794
-0.23074216 -64.567848 -26.868954 -146.48946 -56.898315 60.546028
-48.705887 41.172092 -56.880108 61.79781 -1.9020901 117.86977
840000000 -26.083559 -145.47545 -0.2323395 -65.346092 -48.582642 40.527287
-0.23218711 -65.337112 -26.710434 -147.15608 -56.534569 59.929379
-48.624195 40.666306 -56.641132 59.208813 -1.9019295 117.07281
850000000 -25.993723 -146.27988 -0.2316025 -66.127007 -48.439999 39.977062
-0.23348358 -66.112793 -26.655718 -148.05415 -56.534798 58.905903
-48.409565 39.662643 -56.589993 60.554996 -1.9010398 116.31496
860000000 -25.9275 -147.08727 -0.23399398 -66.898224 -48.355877 39.12698
-0.23360586 -66.881874 -26.585688 -148.94545 -56.330963 58.184765
-48.368153 39.481834 -56.386051 58.287346 -1.900148 115.58075
870000000 -25.815386 -147.4817 -0.23512442 -67.675598 -48.226036 39.067883
-0.23615102 -67.670067 -26.474934 -149.93343 -56.24052 59.357418
-48.266167 38.682602 -56.199238 59.102303 -1.8995298 114.86648
880000000 -25.671883 -148.1741 -0.23753415 -68.448746 -48.140274 38.530037
-0.23739059 -68.449654 -26.343077 -151.07333 -56.079365 56.674263
-48.161545 38.323387 -56.185623 56.841637 -1.9001093 114.16783
890000000 -25.549831 -148.78825 -0.23865964 -69.220062 -48.106499 37.42717
-0.23799877 -69.223282 -26.210451 -152.32443 -55.865623 56.796795
-48.033234 37.579842 -55.969246 57.463558 -1.9012035 113.48459
900000000 -25.397499 -149.55634 -0.2393221 -69.995728 -47.940258 37.128075
-0.23938428 -69.989212 -26.05637 -153.79367 -55.746136 56.134033
-47.956829 36.681976 -55.757206 55.871769 -1.9035758 112.78988
910000000 -25.232025 -150.065 -0.24036133 -70.766327 -47.863956 35.75713
-0.24015489 -70.764931 -25.898041 -155.07457 -55.644043 56.396751
-47.748352 36.375633 -55.888374 55.290657 -1.9054706 112.07024
920000000 -25.0846 -150.83492 -0.24205323 -71.552971 -47.694229 35.834812
-0.24133965 -71.533012 -25.715647 -156.20564 -55.642673 55.889599
-47.736279 35.762661 -55.7356 54.615517 -1.9088919 111.32777
930000000 -24.913557 -151.52879 -0.24266446 -72.325653 -47.620674 34.871677
-0.24193381 -72.307129 -25.596033 -157.47678 -55.581833 54.906933
-47.612724 35.203388 -55.55204 54.462177 -1.9123415 110.55911
940000000 -24.764139 -152.48653 -0.24663246 -73.101112 -47.504398 34.51976
-0.24287717 -73.080681 -25.429701 -158.49706 -55.265129 54.678322
-47.496895 34.979736 -55.221714 54.645954 -1.914553 109.76427
950000000 -24.599237 -153.33336 -0.24867791 -73.878937 -47.436798 33.71328
