!Keysight Technologies,N5232A,MY52221226,A.10.49.03
!Date: Wednesday, April 13, 2016 22:00:04
!Correction: S11(Full 6 Port(1,2,3,4,5,6)) 
!S12(Full 6 Port(1,2,3,4,5,6)) 
!S13(Full 6 Port(1,2,3,4,5,6)) 
!S21(Full 6 Port(1,2,3,4,5,6)) 
!S22(Full 6 Port(1,2,3,4,5,6)) 
!S23(Full 6 Port(1,2,3,4,5,6)) 
!S31(Full 6 Port(1,2,3,4,5,6)) 
!S32(Full 6 Port(1,2,3,4,5,6)) 
!S33(Full 6 Port(1,2,3,4,5,6)) 
!S3P File: Measurements: <S11,S12,S13>,
!<S21,S22,S23>,
!<S31,S32,S33>:
# Hz S  dB   R 50
9999999.9999998 -46.401878 -7.4367151 -0.10044847 -0.8852585 -89.144005 80.421227
-0.10528057 -0.87298888 -45.231277 -4.7767854 -95.115814 33.062107
-85.887161 40.55407 -93.296013 33.129883 -1.6554693 179.15724
20000000 -45.645973 -2.9440055 -0.11068661 -1.6965122 -80.383659 74.23468
-0.11158086 -1.6800035 -45.582718 -3.4761956 -91.536118 52.945992
-80.202728 65.485336 -87.824211 22.63496 -1.6601083 178.34369
30000000 -44.929283 -4.9266319 -0.11621002 -2.490433 -79.63871 79.543053
-0.11516678 -2.4772997 -45.282524 -5.5467086 -89.585831 44.932468
-79.054405 80.006866 -86.92794 72.498497 -1.6639225 177.54019
40000000 -44.727303 -4.9024262 -0.1173927 -3.2767966 -75.838089 79.309036
-0.12069445 -3.276046 -45.304779 -6.167726 -92.167313 33.091282
-77.200806 88.620712 -89.356293 78.060593 -1.6695032 176.73537
50000000 -44.830818 -5.5151043 -0.12327769 -4.0875568 -73.679192 84.561684
-0.12304718 -4.0795236 -45.466099 -7.0495253 -86.072891 84.24424
-73.748192 81.532471 -84.433556 83.248344 -1.6735185 175.9549
60000000 -44.23476 -7.9620481 -0.12705186 -4.8874435 -72.915749 80.024437
-0.12554806 -4.870183 -45.118168 -8.0890741 -88.043037 112.5267
-72.432915 83.847626 -84.80941 86.78109 -1.6766354 175.18454
70000000 -43.574821 -8.65417 -0.13032821 -5.6727991 -71.554588 84.692093
-0.12954988 -5.6577988 -45.195541 -8.9946613 -84.103722 67.587173
-70.784988 80.731667 -86.597969 82.688751 -1.6791421 174.40953
80000000 -42.812073 -10.49758 -0.13289933 -6.460134 -69.952667 84.050026
-0.13255633 -6.4576478 -45.248367 -12.45671 -81.945869 94.004501
-69.78688 81.507179 -82.201668 89.86161 -1.682476 173.63585
90000000 -42.434311 -13.569126 -0.13550331 -7.2511935 -69.103012 82.705536
-0.13480732 -7.2556162 -45.199013 -16.589579 -81.920967 87.364471
-69.0569 79.143349 -81.353813 91.657784 -1.6859531 172.87193
100000000 -42.437988 -16.35313 -0.13733479 -8.039463 -67.951622 83.20755
-0.13485922 -8.0444736 -45.32515 -19.655703 -80.968178 89.542427
-68.049644 84.22654 -80.828133 79.754135 -1.6896517 172.11731
110000000 -42.340176 -20.594995 -0.13875774 -8.8410988 -67.060585 81.883545
-0.13731737 -8.8418379 -45.460083 -23.036234 -78.284782 86.885788
-67.001198 82.583931 -78.876022 85.412796 -1.6927899 171.36221
120000000 -41.919102 -23.018904 -0.14155252 -9.6426115 -66.25808 82.083321
-0.14217296 -9.6348705 -45.481709 -24.920509 -77.308212 89.208679
-66.1502 81.172585 -79.195374 73.681519 -1.6963998 170.60385
130000000 -41.421654 -25.158173 -0.1435657 -10.440722 -65.414085 81.407089
-0.14431489 -10.429129 -45.24287 -31.448736 -78.141029 96.278954
-65.189941 81.83149 -78.103119 96.172401 -1.7010025 169.84718
140000000 -40.955032 -28.646883 -0.14855562 -11.214376 -64.702408 79.369057
-0.14945696 -11.202209 -44.56839 -41.083179 -77.046822 85.721695
-64.665512 81.845474 -76.986794 89.748024 -1.7029107 169.10445
150000000 -40.746826 -31.717398 -0.14666048 -11.98252 -64.302521 82.093948
-0.14489451 -11.988777 -44.366478 -47.385387 -76.058014 93.73996
-64.238075 80.8815 -76.480309 91.503876 -1.6993414 168.31348
160000000 -40.671936 -34.250664 -0.15014422 -12.772977 -63.683422 80.921196
-0.14878911 -12.775194 -45.234898 -51.035931 -75.786293 91.615189
-63.567165 81.962509 -74.929207 88.567001 -1.7037061 167.51009
170000000 -40.620255 -37.349689 -0.15272215 -13.571363 -62.917892 80.697754
-0.15148185 -13.547846 -46.787685 -54.274395 -74.190979 92.12384
-62.85228 81.591309 -73.766876 95.244308 -1.7093011 166.73665
180000000 -40.587643 -39.884632 -0.15431754 -14.366345 -62.169064 79.698982
-0.15240809 -14.329534 -47.863335 -59.093903 -74.699646 96.015511
-62.629635 79.944656 -73.536385 87.805542 -1.7100915 165.95747
190000000 -40.349716 -39.910538 -0.15556228 -15.156896 -62.032177 78.909271
-0.1529586 -15.12999 -47.786469 -64.132065 -74.263474 89.81398
-61.881516 77.432297 -73.946899 85.335533 -1.711951 165.16974
200000000 -39.959393 -39.389099 -0.15758742 -15.94366 -61.503162 78.672829
-0.15594062 -15.927271 -47.180351 -63.736095 -72.889877 89.40847
-61.651676 77.958305 -72.573494 92.298622 -1.7121693 164.38968
210000000 -39.600315 -38.726871 -0.15934175 -16.719856 -61.264236 78.034317
-0.15642667 -16.714024 -46.282974 -63.411007 -72.326401 95.194908
-61.116966 77.480385 -72.485741 90.051117 -1.7114171 163.6178
220000000 -39.352867 -39.62278 -0.16174166 -17.49618 -60.682148 78.202919
-0.15800393 -17.500448 -45.761856 -64.878769 -71.936897 89.824821
-60.844688 77.077347 -72.27729 89.345749 -1.711684 162.85405
230000000 -39.002476 -41.525803 -0.16257516 -18.27759 -60.426487 77.302338
-0.15849528 -18.283352 -45.391838 -68.162239 -71.899765 89.94323
-60.393837 75.423492 -71.822639 89.622513 -1.7127436 162.10019
240000000 -38.764648 -44.585522 -0.16371852 -19.070211 -59.86916 76.921478
-0.1600896 -19.065392 -45.134232 -74.121361 -70.61026 88.343727
-59.829174 76.433182 -70.92511 89.235306 -1.7141935 161.34818
250000000 -38.579582 -48.000816 -0.16519266 -19.855093 -59.719074 76.213463
-0.16223338 -19.855675 -44.560055 -80.27372 -70.945656 90.281456
-59.421864 75.385063 -70.838509 85.070869 -1.7152734 160.59166
260000000 -38.304535 -50.72604 -0.16689771 -20.646339 -59.248081 75.176422
-0.16481912 -20.644907 -43.833683 -83.71685 -69.947067 90.97644
-59.286968 74.122177 -70.394608 88.594078 -1.7173693 159.83311
270000000 -38.04977 -52.410332 -0.16953741 -21.430275 -58.946304 74.279465
-0.16653463 -21.42869 -43.223244 -85.602493 -69.648056 91.959038
-58.997097 73.243027 -70.254974 93.62207 -1.7198455 159.06148
280000000 -37.941364 -54.034363 -0.17123114 -22.216476 -58.745007 73.551811
-0.16857357 -22.216026 -42.821892 -85.947052 -68.884499 93.045418
-58.719524 73.565239 -69.258255 92.397011 -1.7214531 158.27313
290000000 -37.822464 -55.472134 -0.17437367 -22.993462 -58.313202 74.744781
-0.17019504 -22.992588 -42.301517 -85.032806 -68.775253 86.588974
-58.359554 74.133888 -69.19072 84.643929 -1.7230561 157.47855
300000000 -37.916153 -56.107716 -0.17348231 -23.771132 -58.07716 72.905716
-0.17117828 -23.775345 -42.373241 -84.154152 -68.628601 88.443222
-57.984459 72.64563 -68.697762 88.08181 -1.7238415 156.6804
310000000 -38.007813 -56.692883 -0.17312098 -24.558329 -57.603024 71.818733
-0.17192581 -24.560091 -42.267239 -82.605637 -68.054489 88.731842
-57.607189 72.67215 -68.833984 89.267365 -1.7249179 155.88884
320000000 -38.025398 -57.397995 -0.17407706 -25.357344 -57.430641 71.468987
-0.17461064 -25.351284 -42.159283 -82.476097 -68.002739 88.288635
-57.432674 72.26413 -68.431175 90.578873 -1.724717 155.11313
330000000 -37.937531 -57.876953 -0.17713772 -26.148867 -57.077862 71.140396
-0.17702813 -26.135 -42.285381 -82.997841 -67.723488 86.196411
-57.164734 71.570633 -67.704567 87.497124 -1.7236941 154.34877
340000000 -37.836456 -58.933716 -0.17971607 -26.9256 -56.786343 70.412727
-0.180071 -26.917955 -42.492222 -84.835258 -67.496788 86.488724
-56.852192 71.401863 -67.38398 87.923477 -1.7218641 153.60068
350000000 -37.740158 -59.697479 -0.18151261 -27.701042 -56.509357 70.049133
-0.18185166 -27.686687 -42.649555 -85.883072 -67.11644 87.078796
-56.581844 69.875282 -67.138176 86.532394 -1.7221099 152.8662
360000000 -37.464134 -59.871861 -0.18358648 -28.486649 -56.429859 69.202217
-0.18225102 -28.467484 -42.472569 -87.740837 -67.28083 85.794243
-56.393539 69.952057 -66.797897 85.664978 -1.7240959 152.1449
370000000 -37.234188 -61.324104 -0.18521844 -29.269478 -56.183926 68.898346
-0.18413699 -29.244217 -42.21994 -90.307396 -66.606285 87.283188
-56.195339 68.146759 -66.468437 88.241188 -1.7271998 151.43542
380000000 -37.058323 -63.028637 -0.18798548 -30.043407 -55.833614 67.809227
-0.18450505 -30.023211 -41.80109 -92.591721 -66.194099 85.815331
-55.790829 68.351364 -66.610718 87.851456 -1.7298334 150.71896
390000000 -36.970119 -65.501411 -0.1893626 -30.813063 -55.622627 67.404198
-0.18468922 -30.802805 -41.234943 -95.314377 -65.800873 85.070023
-55.584553 67.788567 -66.215553 82.782463 -1.7327906 149.99661
400000000 -36.8283 -68.327309 -0.18963075 -31.596479 -55.416115 67.155983
-0.18364763 -31.579674 -40.643742 -97.524437 -65.642868 86.856789
-55.493256 66.934265 -65.128502 86.466454 -1.7347846 149.26425
410000000 -36.742123 -71.243202 -0.19065633 -32.371426 -55.20771 66.936691
-0.18233727 -32.380714 -40.156082 -99.323311 -65.193687 85.942749
-55.272446 67.058281 -65.478958 85.559326 -1.7373016 148.52036
420000000 -36.588078 -73.615852 -0.18929161 -33.15369 -55.031898 66.134377
-0.18510589 -33.179886 -39.664631 -99.674034 -65.035835 87.167282
-55.0802 65.267738 -64.995964 84.009529 -1.7378463 147.76436
430000000 -36.580666 -76.990845 -0.18819551 -33.953777 -54.681671 66.127075
-0.18864164 -33.968258 -39.203079 -99.404884 -64.866196 86.294586
-54.720959 64.6278 -64.833641 85.153641 -1.7334268 146.98769
440000000 -36.692318 -78.440918 -0.1881111 -34.755611 -54.563824 64.950821
-0.19086491 -34.749752 -38.896008 -97.79377 -64.453804 83.154083
-54.595215 64.492561 -64.595062 84.730888 -1.7304405 146.1826
450000000 -36.674561 -80.033012 -0.19010128 -35.551044 -54.30093 63.569645
-0.19311729 -35.526211 -38.6353 -97.555328 -64.157692 84.196602
-54.387657 64.013954 -64.204163 82.394104 -1.7296677 145.38304
460000000 -36.859184 -80.944702 -0.19257438 -36.339161 -54.112122 62.90818
-0.19340025 -36.298809 -38.645374 -97.077843 -64.347961 84.814255
-54.21497 63.242626 -64.382759 84.120972 -1.7293657 144.5963
470000000 -36.95327 -82.102058 -0.19577171 -37.120831 -53.974133 62.151989
-0.19345967 -37.084576 -38.603058 -97.061951 -63.887547 82.758018
-53.970264 62.443729 -63.769104 83.678268 -1.728559 143.83476
480000000 -37.089737 -83.242989 -0.19820449 -37.891068 -53.81303 61.93774
-0.19478352 -37.873577 -38.722534 -97.386787 -63.59576 82.896576
-53.779575 61.931293 -63.734386 82.111664 -1.7293502 143.10417
490000000 -37.120205 -84.376114 -0.1994665 -38.667362 -53.579399 61.775803
-0.19605391 -38.654106 -38.645264 -98.123024 -63.499622 81.708984
-53.576717 61.558933 -63.640007 81.41198 -1.7319038 142.39388
500000000 -36.990326 -86.922249 -0.19987063 -39.455406 -53.413342 61.098843
-0.19835155 -39.445583 -38.245186 -100.30953 -63.251358 80.610535
-53.454895 61.636913 -63.283054 82.895859 -1.7341434 141.6937
510000000 -36.69709 -90.204475 -0.20160791 -40.233025 -53.221687 60.489483
-0.20096469 -40.228745 -37.79731 -102.84499 -62.844738 80.149437
-53.166782 59.918976 -62.817337 82.07653 -1.7362117 140.99232
520000000 -36.387608 -93.717804 -0.2039618 -41.019714 -53.101234 59.874565
-0.20169945 -41.003738 -37.24791 -105.58093 -62.757664 80.618248
-53.002731 59.61385 -62.862129 80.285797 -1.7385197 140.27287
530000000 -36.047367 -97.042854 -0.20558032 -41.801979 -52.894539 59.138607
-0.20394902 -41.787014 -36.751369 -107.02882 -62.251404 80.946312
-52.921349 58.875767 -62.251553 80.318901 -1.7411408 139.53844
540000000 -35.704262 -100.12717 -0.20676516 -42.577312 -52.71529 58.517284
-0.20598543 -42.567558 -36.21891 -108.36726 -62.051582 79.307449
-52.742256 58.553791 -62.39978 80.323929 -1.7449672 138.77898
550000000 -35.33638 -103.05668 -0.20833279 -43.361298 -52.633648 58.259315
-0.20644967 -43.34713 -35.716759 -109.05058 -61.80061 78.240494
-52.545712 57.318634 -61.97694 79.913528 -1.7481208 138.00366
560000000 -35.103416 -105.70335 -0.20976776 -44.14677 -52.447472 57.459492
-0.20701437 -44.132259 -35.257813 -110.08144 -62.052944 78.808029
-52.381508 57.933056 -61.78273 76.473473 -1.7497444 137.21494
570000000 -34.958866 -108.94347 -0.21115655 -44.932247 -52.284592 56.542618
-0.20928088 -44.918793 -34.976242 -110.43989 -61.821804 78.072357
-52.184685 57.041695 -61.803616 77.019577 -1.7494241 136.4216
580000000 -34.845871 -111.08807 -0.2139084 -45.713676 -52.108559 55.795593
-0.21069336 -45.706207 -34.767715 -111.31537 -61.452488 78.41256
-52.115849 56.12851 -61.472309 76.843781 -1.7483606 135.63354
590000000 -34.706261 -112.90379 -0.21469466 -46.498055 -52.021313 55.472343
-0.21220554 -46.490269 -34.539131 -112.06303 -61.231167 76.486031
-51.983273 55.342041 -61.408447 77.563728 -1.7469331 134.86909
600000000 -34.525932 -114.43985 -0.21562549 -47.278957 -51.776821 54.774551
-0.21427551 -47.279182 -34.402531 -113.0397 -61.047272 76.63343
-51.775513 54.934139 -60.95985 76.563515 -1.7450548 134.1252
610000000 -34.359798 -115.33221 -0.21810706 -48.055244 -51.535843 55.145393
-0.21547151 -48.053429 -34.278893 -113.89973 -60.8442 76.609291
-51.680519 54.42157 -60.970665 76.005203 -1.7448769 133.40425
620000000 -34.106052 -115.96895 -0.22023372 -48.832832 -51.481682 53.914108
-0.21724892 -48.831417 -34.097809 -115.1905 -60.757751 76.034081
-51.45842 54.124588 -60.704891 75.363602 -1.7469338 132.70912
630000000 -33.774757 -116.29804 -0.22095247 -49.619858 -51.352016 53.606937
-0.21716009 -49.613506 -33.858768 -116.75771 -60.682396 75.204826
-51.331276 53.548363 -60.594574 75.17868 -1.7505729 132.01846
640000000 -33.438553 -117.3418 -0.22186345 -50.396976 -51.220882 52.84462
-0.21893941 -50.392124 -33.570583 -118.60137 -60.420193 75.285942
-51.188358 52.842632 -60.396313 73.995171 -1.7541434 131.31609
650000000 -33.150078 -118.20548 -0.22193712 -51.182045 -51.109848 51.707233
-0.22153111 -51.171867 -33.256813 -120.69543 -60.150837 76.010811
-50.982529 51.762627 -60.216362 74.990768 -1.7576743 130.59761
660000000 -32.833782 -120.07724 -0.2224367 -51.968216 -50.974068 51.471947
-0.22283223 -51.95224 -33.008705 -123.13341 -60.064198 75.27037
-50.898342 51.036076 -60.048149 74.723289 -1.7592014 129.85136
670000000 -32.535423 -121.62544 -0.22477536 -52.750149 -50.718136 51.020348
-0.22531103 -52.735107 -32.792591 -125.16726 -59.840237 74.491539
-50.770748 50.98679 -59.772949 74.519043 -1.7624207 129.07458
680000000 -32.302467 -123.10374 -0.22725625 -53.525208 -50.660732 50.355934
-0.22688441 -53.520233 -32.502674 -126.53725 -59.463108 73.220398
-50.656803 49.831947 -59.630802 74.625748 -1.7649562 128.27068
690000000 -31.944139 -124.61638 -0.22733174 -54.302479 -50.469696 49.258022
-0.2274531 -54.30957 -32.199116 -127.59312 -59.442875 74.2873
-50.538078 49.311108 -59.483093 71.745483 -1.7670162 127.45171
700000000 -31.635662 -125.65774 -0.22695695 -55.082134 -50.418041 49.222321
-0.2289706 -55.093449 -31.934391 -128.77002 -59.077785 72.867287
-50.361595 48.98851 -59.519157 72.097397 -1.7677799 126.62244
710000000 -31.428688 -127.01099 -0.22850063 -55.867096 -50.294731 47.901386
-0.23002504 -55.877483 -31.796053 -129.81319 -59.000145 71.81057
-50.311211 47.863098 -58.988297 72.046036 -1.7658757 125.81083
720000000 -31.243942 -127.79926 -0.23075101 -56.650967 -50.155678 47.322636
-0.23053817 -56.659897 -31.652786 -131.12753 -58.951962 72.255592
-50.218872 47.036114 -58.990135 71.568939 -1.7653536 125.02282
730000000 -31.068083 -128.21707 -0.23151983 -57.43771 -50.136677 47.188797
-0.23266765 -57.43858 -31.569992 -132.12886 -58.608444 72.317329
-50.092987 47.160652 -58.791237 72.715797 -1.7639233 124.25871
740000000 -30.907402 -129.16612 -0.2329637 -58.222294 -50.03978 46.696632
-0.23321861 -58.219658 -31.47031 -133.55493 -58.436726 70.873398
-50.014065 46.618233 -58.313381 70.443092 -1.7634367 123.53064
750000000 -30.745256 -129.72275 -0.23452193 -59.011311 -49.932228 46.616901
-0.23317161 -59.005962 -31.350847 -135.12982 -58.080105 69.565956
-49.895794 46.560913 -58.229877 68.579842 -1.7629138 122.82313
760000000 -30.554619 -130.74168 -0.23606168 -59.785843 -49.612167 46.121864
-0.23431523 -59.78714 -31.147387 -136.82344 -58.163921 67.193352
-49.639954 45.967808 -58.08041 68.516335 -1.7637216 122.12373
770000000 -30.380844 -131.47041 -0.23688611 -60.575787 -49.458488 45.814301
-0.23680438 -60.575222 -30.946091 -138.20375 -58.03072 68.824066
-49.546963 45.073536 -57.7677 68.000191 -1.764946 121.43169
780000000 -30.124117 -132.59178 -0.23743418 -61.358322 -49.470745 44.395542
-0.23632088 -61.360863 -30.663282 -139.76952 -57.697765 68.281464
-49.37405 44.547966 -57.786678 67.377998 -1.7655097 120.72548
790000000 -29.840239 -133.8902 -0.2385723 -62.144421 -49.253979 44.117439
-0.23688243 -62.14402 -30.380379 -141.62981 -57.613503 66.078613
-49.279621 44.306606 -57.675396 66.066299 -1.7680292 119.99335
800000000 -29.594299 -135.30914 -0.24123126 -62.922115 -49.102013 43.412491
-0.238966 -62.9249 -30.115547 -142.78148 -57.602188 65.159523
-49.149811 43.704411 -57.490517 65.98703 -1.7699193 119.24392
810000000 -29.404346 -136.57455 -0.24307498 -63.712109 -49.051746 42.603752
-0.2411525 -63.705544 -29.872114 -143.50711 -57.531994 64.629242
-49.016472 42.583275 -57.444149 65.240189 -1.7722155 118.47301
820000000 -29.190634 -137.6853 -0.2452444 -64.496185 -48.866657 42.623943
-0.24346972 -64.490356 -29.629005 -144.23886 -57.22562 65.166862
-48.888271 42.022488 -57.278576 65.167679 -1.7738266 117.66662
830000000 -29.018137 -138.91479 -0.24732262 -65.272697 -48.802368 41.433468
-0.24618939 -65.267273 -29.466997 -145.22324 -57.184711 63.807247
-48.803352 41.381489 -57.16156 63.939259 -1.7754203 116.86245
840000000 -28.849976 -140.02106 -0.24850425 -66.055206 -48.701466 40.72834
-0.2478909 -66.046478 -29.252716 -145.95032 -57.107658 63.34383
-48.717499 40.743969 -56.954823 63.318764 -1.7749288 116.0582
850000000 -28.709892 -140.96539 -0.24812539 -66.842606 -48.594666 39.870396
-0.24958292 -66.828163 -29.157194 -146.97192 -56.786476 62.834976
-48.581146 40.037857 -56.755306 62.773769 -1.7737927 115.28448
860000000 -28.612127 -141.81837 -0.25020003 -67.620461 -48.472469 39.442997
-0.25028169 -67.607109 -29.068853 -148.02147 -56.68903 63.234215
-48.501408 39.583103 -56.773613 62.139927 -1.7730905 114.53891
870000000 -28.444565 -142.19818 -0.25184622 -68.405838 -48.355045 39.219551
-0.25264519 -68.397408 -28.918388 -149.27922 -56.589417 61.562649
-48.344818 38.574173 -56.690903 62.034477 -1.7725934 113.81415
880000000 -28.232149 -143.03107 -0.25429952 -69.188179 -48.207767 38.471317
-0.25368831 -69.185173 -28.744577 -150.69006 -56.354954 61.539539
-48.240089 38.646896 -56.334789 61.335545 -1.7733389 113.10593
890000000 -28.068377 -143.66656 -0.25618792 -69.962547 -48.17831 37.720139
-0.25547507 -69.965416 -28.561811 -152.18018 -56.223896 61.393257
-48.181347 38.056538 -56.240917 60.862663 -1.7741938 112.41115
900000000 -27.8641 -144.57169 -0.25640482 -70.744194 -48.036182 37.362755
-0.25641984 -70.736511 -28.357958 -153.9572 -56.212311 60.56189
-48.069149 37.218925 -56.595158 60.431877 -1.7757757 111.70579
910000000 -27.662016 -145.26555 -0.25761876 -71.525581 -47.917667 36.445213
-0.25727904 -71.527534 -28.153122 -155.45778 -56.015251 59.391056
-47.908691 36.222416 -56.218891 59.856201 -1.7777758 110.98149
920000000 -27.475945 -146.12271 -0.25965795 -72.320724 -47.850075 35.63792
-0.2590602 -72.301552 -27.91301 -156.82173 -55.999989 59.399193
-47.800713 35.716808 -56.020927 59.2887 -1.7810918 110.22863
930000000 -27.256552 -147.00412 -0.26039916 -73.102623 -47.747253 35.160431
-0.25968918 -73.084312 -27.752396 -158.30963 -55.782528 58.763527
-47.70409 35.431343 -55.860268 60.092873 -1.7842014 109.45246
940000000 -27.062424 -148.09351 -0.26463491 -73.886696 -47.649048 34.547165
-0.26100379 -73.866745 -27.534693 -159.45889 -55.734554 58.503235
-47.634613 34.206551 -55.651131 58.198887 -1.7862132 108.64993
950000000 -26.841953 -149.14464 -0.26689154 -74.672226 -47.565342 33.663994
-0.2629177 -74.652618 -27.314583 -160.40164 -55.709949 57.712387
