!Keysight Technologies,N5232A,MY52221226,A.10.49.03
!Date: Thursday, April 14, 2016 11:28:06
!Correction: S11(Full 6 Port(1,2,3,4,5,6)) 
!S12(Full 6 Port(1,2,3,4,5,6)) 
!S13(Full 6 Port(1,2,3,4,5,6)) 
!S21(Full 6 Port(1,2,3,4,5,6)) 
!S22(Full 6 Port(1,2,3,4,5,6)) 
!S23(Full 6 Port(1,2,3,4,5,6)) 
!S31(Full 6 Port(1,2,3,4,5,6)) 
!S32(Full 6 Port(1,2,3,4,5,6)) 
!S33(Full 6 Port(1,2,3,4,5,6)) 
!S3P File: Measurements: <S11,S12,S13>,
!<S21,S22,S23>,
!<S31,S32,S33>:
# Hz S  dB   R 50
9999999.9999998 0.0030133456 -0.71243876 -100.703 144.63237 -97.349922 81.831604
-101.45415 115.07067 0.010456542 -0.69040829 -95.854095 42.53302
-98.769341 31.561686 -95.94709 109.5489 0.0031605915 -0.70262206
20000000 0.0064055766 -1.4242857 -100.0234 33.116676 -94.504959 128.18269
-100.48434 70.181145 0.013777489 -1.3863803 -98.214958 7.201417
-94.404099 86.570412 -95.465591 97.950668 0.0049294261 -1.3911872
30000000 0.0065830187 -2.1609533 -86.885941 79.797081 -93.245239 111.0475
-98.571465 168.67433 0.013594334 -2.1125562 -94.162964 86.662254
-87.88633 52.946823 -108.15186 89.775795 0.0048897611 -2.1058083
40000000 0.0049053058 -2.8788579 -96.499725 86.105736 -90.612717 124.19997
-91.645821 69.724228 0.0099984687 -2.8030627 -91.464302 122.00699
-88.671761 104.51909 -89.664612 100.19434 0.0037632638 -2.8193688
50000000 0.0029849357 -3.6002262 -91.397499 77.583267 -87.341454 114.91006
-88.694397 108.85526 0.0085488511 -3.4949636 -97.998688 158.87274
-90.063026 105.27761 -93.270103 66.76963 0.0019937069 -3.51425
60000000 0.0028429655 -4.319088 -85.915947 86.765831 -86.614967 95.158546
-89.044121 78.544762 0.0079008695 -4.190731 -89.261574 69.518753
-87.309875 87.138458 -89.320976 140.97977 0.00079875049 -4.2118335
70000000 0.0028497577 -5.038126 -85.50869 83.478683 -84.17218 86.389961
-85.721848 99.366158 0.0081826122 -4.8816319 -93.572243 38.135593
-84.233948 75.099991 -97.090187 94.094864 0.00087122223 -4.9150481
80000000 0.0026118683 -5.7599444 -84.575111 80.066971 -83.680305 100.7077
-84.353058 96.283379 0.0093838759 -5.566926 -92.769363 107.56927
-83.941483 71.63134 -86.299026 97.798798 0.0032746522 -5.6208539
90000000 0.0031094057 -6.4759526 -85.724815 73.360718 -82.103012 94.461418
-84.860855 89.377327 0.010704935 -6.264545 -92.837334 105.74693
-81.18 93.388245 -86.385864 72.601547 0.0044033318 -6.3399282
100000000 0.0042040115 -7.195827 -82.221214 73.039673 -81.788124 80.867455
-85.443832 91.851723 0.0108799 -6.9734082 -92.833649 97.946877
-81.013489 74.31234 -93.719025 81.750114 0.0049692411 -7.0635872
110000000 0.0041163773 -7.9171824 -81.508705 82.868416 -81.28257 81.809921
-82.55838 77.819176 0.0096113225 -7.6885529 -89.916435 99.690315
-84.780952 75.238602 -92.133415 87.890739 0.0042410982 -7.7947068
120000000 0.0025803228 -8.6337042 -81.655403 80.327705 -80.92601 70.844833
-81.848206 90.723488 0.0077449274 -8.4077148 -87.280594 88.365105
-81.928902 80.975517 -87.690506 99.612564 0.0030413882 -8.514904
130000000 -7.1821494e-005 -9.3388386 -79.862289 75.965973 -81.2295 81.451866
-80.968605 79.777122 0.0062609259 -9.122221 -88.283966 108.17155
-80.612648 79.879723 -86.99279 83.311394 0.00065017329 -9.220952
140000000 -0.0029252789 -10.037033 -79.713318 85.394791 -80.233406 72.237595
-79.982468 72.641129 0.0010422132 -9.8093843 -85.699684 76.864952
-79.775299 80.609535 -88.713783 70.058784 -0.0014024316 -9.8951044
150000000 0.0014130791 -10.726914 -79.559212 87.995689 -77.969803 77.72802
-79.920906 78.741547 0.0065621976 -10.487309 -87.161682 65.731667
-79.459229 77.735855 -85.940323 87.509537 0.0046648285 -10.596022
160000000 0.0018722287 -11.451338 -78.596893 84.355568 -77.622513 80.665573
-79.00106 74.798958 0.0077873161 -11.204413 -86.675552 86.695045
-78.503212 79.863876 -86.99617 79.866226 0.002636286 -11.331825
170000000 0.00096628995 -12.162649 -77.286446 74.089577 -77.085899 82.639603
-78.418831 69.579414 0.007566114 -11.910521 -84.310379 83.697548
-77.888275 75.161011 -83.797363 77.816948 -0.0021526723 -11.982934
180000000 -0.0012164661 -12.857505 -77.548561 76.284538 -78.39888 73.177177
-78.215721 80.610878 0.0058523975 -12.598763 -88.357208 72.427727
-78.103607 76.827263 -84.192787 65.843864 -0.0011161752 -12.657185
190000000 -0.0021151551 -13.537468 -78.429604 76.632698 -77.365845 73.150475
-77.180222 77.233078 0.0049618012 -13.269889 -84.65403 77.60508
-77.265434 77.963776 -84.197823 66.231194 -0.0016982824 -13.32774
200000000 -0.0017680116 -14.210115 -76.294434 80.778656 -76.101906 77.158791
-75.424179 70.892052 0.0049175411 -13.945818 -82.968925 75.793648
-76.559555 75.184021 -84.407158 83.64917 -0.0013665914 -14.004263
210000000 -0.00086147524 -14.893694 -76.120216 77.407318 -75.897247 75.62941
-75.002945 74.105438 0.0041201101 -14.628706 -86.674721 73.127136
-76.652702 73.623848 -83.747154 76.025543 -0.0027701666 -14.691063
220000000 -0.00063946121 -15.58475 -75.660431 74.015717 -75.386429 80.557167
-76.230545 75.467697 0.0033777978 -15.325575 -84.507263 71.804375
-75.465187 78.050552 -85.227821 72.339287 -0.0038527581 -15.390179
230000000 -0.0016805818 -16.274317 -75.22023 74.233482 -75.511765 77.325089
-75.065102 77.831398 0.0018606923 -16.031126 -84.924217 62.303074
-75.439537 70.613342 -82.312744 94.280678 -0.0056137424 -16.101463
240000000 -0.0026891022 -16.958601 -74.827271 67.646301 -75.284004 68.875313
-75.387848 73.470932 -0.00046452935 -16.747444 -81.448425 61.817104
-74.367943 69.180664 -81.623207 84.198441 -0.0064269551 -16.805086
250000000 -0.0030536954 -17.6469 -75.01664 71.822968 -75.462143 74.796181
-74.693886 79.524216 -0.0020199367 -17.46032 -82.77536 67.893066
-74.206917 66.717865 -82.616158 62.894951 -0.0079600997 -17.514776
260000000 -0.0038953573 -18.332369 -74.881027 75.758781 -74.474167 68.601578
-74.599861 71.098976 -0.0031036134 -18.171513 -82.300774 80.749832
-73.874405 70.990791 -81.309189 64.772232 -0.0070408038 -18.213512
270000000 -0.0034137589 -19.006474 -74.228447 75.541931 -74.699303 68.440704
-74.715408 70.418381 -0.0012581705 -18.879873 -81.262756 72.642914
-73.618378 70.519913 -81.27668 74.397972 -0.0063248933 -18.904446
280000000 -0.0014490903 -19.686264 -73.337463 67.378265 -73.868393 65.228218
-73.679939 72.659271 -0.00067184749 -19.582653 -81.034843 71.522507
-74.360313 69.574928 -82.819016 73.086739 -0.0046570404 -19.586311
290000000 -0.0019120541 -20.369709 -73.286392 74.043564 -72.945122 67.067024
-73.671844 69.459229 -0.00046918637 -20.282089 -81.436363 76.240021
-73.043205 68.945915 -81.915268 63.595619 -0.00550659 -20.263561
300000000 -0.0013119229 -21.051226 -72.766823 67.244545 -73.474274 65.997398
-72.815926 72.121529 -0.00073385664 -20.968338 -79.051399 66.876816
-73.119011 73.179443 -82.858093 69.728302 -0.0049717296 -20.938286
310000000 -0.0024427653 -21.735474 -73.166023 67.504013 -72.886917 70.311623
-72.297432 70.569611 -0.00080084708 -21.650978 -79.898949 62.545834
-72.333305 69.773102 -79.417999 69.557259 -0.005221983 -21.616356
320000000 -0.0045793415 -22.411179 -73.128143 69.289841 -72.635963 65.721169
-72.851967 68.590645 -0.0025027872 -22.315636 -80.902435 69.837013
-72.273384 68.652794 -80.827187 64.542503 -0.0057942122 -22.285648
330000000 -0.0052044718 -23.086391 -72.496391 67.236145 -72.464821 70.080643
-72.096123 69.897346 -0.0015553628 -22.981001 -80.096001 69.313972
-72.342262 69.660988 -78.966507 64.207642 -0.004926702 -22.970034
340000000 -0.0031755378 -23.772327 -72.292938 67.125137 -71.68586 63.151146
-71.905403 68.24205 8.9406822e-005 -23.657791 -78.864693 66.618202
-71.612946 66.278152 -79.263313 73.291061 -0.0040543741 -23.68729
350000000 -0.0015821786 -24.471636 -72.258034 63.342506 -71.77697 75.309021
-71.618027 66.210503 0.0016556877 -24.360712 -80.064957 75.866829
-71.813133 62.850479 -80.796448 64.04921 -0.0044803708 -24.427971
360000000 -0.00081817445 -25.171204 -71.875137 62.328148 -71.397552 62.609947
-71.516876 62.519958 0.0011355245 -25.061581 -78.761993 59.095139
-71.336136 65.866997 -78.304199 69.213043 -0.0064647463 -25.171551
370000000 -0.0013872609 -25.884138 -71.300674 61.4604 -71.535927 63.376766
-70.969307 63.238407 0.00041649718 -25.770607 -77.814941 62.191879
-71.004349 63.179222 -79.046928 75.929619 -0.008425652 -25.909971
380000000 -0.0066084247 -26.567455 -71.276886 59.579208 -71.275459 65.38559
-70.902443 62.528431 -0.00018316548 -26.501122 -77.886307 66.645462
-70.911278 63.140865 -77.540207 64.850937 -0.0071272743 -26.637968
390000000 -0.0074699111 -27.224577 -70.885536 65.612823 -70.834488 63.095753
-70.6231 60.92194 -0.001718069 -27.232342 -78.821388 74.192085
-70.583961 64.826584 -79.515396 69.239777 -0.0054745013 -27.37491
400000000 -0.0080822716 -27.898529 -70.52903 59.135471 -71.23597 60.054157
-71.182281 63.103832 -0.005175448 -27.958313 -79.680153 53.643051
-70.401794 61.217915 -78.420418 67.970879 -0.0031899193 -28.116734
410000000 -0.0080988994 -28.563395 -70.103752 59.775043 -70.887222 63.527042
-70.596664 64.198982 -0.0068819434 -28.678595 -78.328041 65.250282
-69.624794 61.012482 -79.535088 56.128456 -0.0028999504 -28.862757
420000000 -0.0078916997 -29.239508 -69.876457 58.291656 -69.904739 57.290939
-70.409164 56.277542 -0.0088835908 -29.382313 -77.669426 54.456879
-70.163788 59.611309 -79.065674 57.932682 -0.0078701144 -29.58922
430000000 -0.0073694321 -29.929138 -70.142181 60.876316 -69.571487 59.136757
-69.653366 61.233788 -0.01108125 -30.068392 -77.991638 57.155952
-69.896484 62.488842 -77.172462 49.181419 -0.0128041 -30.286203
440000000 -0.0077453814 -30.625738 -70.21756 57.373131 -69.719246 59.889313
-69.912567 60.905643 -0.012945316 -30.732891 -78.902412 59.433525
-69.584389 58.72913 -78.303757 61.943493 -0.018200329 -30.964567
450000000 -0.0092681507 -31.323303 -69.743469 59.764107 -69.620964 57.757015
-69.60424 59.887646 -0.011860122 -31.389641 -77.692978 52.670689
-69.446373 59.200302 -76.598465 55.00103 -0.021664685 -31.610163
460000000 -0.012313518 -32.022301 -69.265762 56.922691 -69.337753 56.922688
-69.53746 58.02454 -0.0096390573 -32.043438 -76.479187 62.665047
-69.727303 58.934658 -77.893692 57.726929 -0.019793974 -32.268196
470000000 -0.015129656 -32.705475 -68.944786 61.038792 -69.3591 54.740978
-69.463013 56.96455 -0.0085537471 -32.712093 -77.056023 54.769596
-69.016754 58.479603 -77.719475 58.970604 -0.017860366 -32.973766
480000000 -0.015255564 -33.393391 -69.275734 58.20808 -68.124817 55.523136
-69.506371 56.409271 -0.0080169104 -33.400623 -77.475182 59.636089
-68.486923 61.663742 -76.579147 55.600761 -0.017427983 -33.709812
490000000 -0.0137811 -34.093208 -68.823669 55.00079 -68.995773 52.884361
-68.556534 55.713131 -0.0087225363 -34.096542 -76.482292 45.492111
-68.744942 55.938622 -76.753777 54.002983 -0.017113864 -34.463596
500000000 -0.01379564 -34.805031 -68.596748 54.697792 -68.263336 51.545643
-68.676414 55.4548 -0.010602481 -34.79665 -76.0644 56.231911
-68.827316 54.004486 -76.460022 54.399685 -0.017759753 -35.217136
510000000 -0.014767937 -35.513912 -68.506454 53.425571 -68.649902 54.758465
-68.604279 55.262669 -0.012652732 -35.499619 -76.053024 58.433525
-68.473587 55.732769 -75.899811 53.864079 -0.01820345 -35.962662
520000000 -0.013467846 -36.219952 -68.1082 55.710491 -67.924179 53.246288
-68.366615 55.861248 -0.012909327 -36.219799 -76.251114 52.835274
-68.460793 53.528633 -76.886703 54.958538 -0.017100196 -36.698597
530000000 -0.01197258 -36.934086 -68.276306 51.233582 -68.012444 53.211716
-68.571518 53.344963 -0.01241665 -36.942833 -76.680771 48.932804
-68.314987 55.860088 -75.38662 48.290714 -0.016007669 -37.430325
540000000 -0.010605955 -37.659992 -67.747871 55.79945 -68.574188 49.866592
-67.936836 51.178486 -0.011531749 -37.672989 -76.225449 56.620529
-67.898567 53.97995 -75.650284 53.812466 -0.016273601 -38.147411
550000000 -0.011070418 -38.387321 -67.952003 50.981647 -67.900146 51.620628
-67.863518 52.825722 -0.011221765 -38.393963 -75.165627 50.581703
-67.822083 53.571266 -75.202187 50.937702 -0.016584732 -38.843174
560000000 -0.012775152 -39.104664 -67.403427 48.673412 -67.573318 49.532055
-68.140312 54.151184 -0.01222965 -39.105953 -74.934494 43.664051
-67.544075 50.422977 -75.858185 52.908623 -0.017495455 -39.519829
570000000 -0.015303171 -39.823421 -67.808929 51.462948 -67.458 50.532223
-67.544106 49.222652 -0.012701532 -39.808235 -75.597115 47.749142
-67.559158 49.177612 -75.073784 55.663975 -0.018773476 -40.192429
580000000 -0.017660832 -40.543224 -67.587845 51.54644 -67.38324 46.240459
-67.757446 49.807735 -0.015409 -40.495419 -74.168602 48.080692
-67.349182 47.922508 -74.794006 54.606632 -0.019511307 -40.869865
590000000 -0.019578828 -41.257309 -67.075928 49.23254 -67.165352 45.156773
-67.367729 53.709267 -0.015925003 -41.172897 -74.786407 46.951538
-67.449875 50.306499 -74.57502 46.748276 -0.021298056 -41.555439
600000000 -0.02028079 -41.974854 -67.567871 50.004036 -66.660233 46.028454
-67.028084 45.935879 -0.015232848 -41.851639 -74.768387 42.381481
-66.838982 50.811039 -75.033211 42.873226 -0.02129074 -42.270084
610000000 -0.01885118 -42.701199 -67.306252 44.561756 -66.90966 45.923191
-67.028717 45.649063 -0.015263805 -42.53545 -74.79818 54.76149
-66.714035 45.74321 -74.144485 45.501865 -0.021760214 -43.010735
620000000 -0.017774934 -43.440025 -66.684662 48.421368 -66.910217 47.310196
-67.156013 44.237358 -0.0152596 -43.224468 -74.121033 46.832321
-66.869064 45.757896 -74.278412 46.80014 -0.021862393 -43.768379
630000000 -0.017943844 -44.180447 -66.48629 47.372723 -66.2938 44.966698
-66.819687 45.987617 -0.015725618 -43.922764 -74.642197 55.767193
-66.760826 44.205742 -74.371666 39.943485 -0.021048974 -44.516376
640000000 -0.01823682 -44.907928 -66.658798 44.76963 -66.613686 43.369545
-66.707413 45.621849 -0.016210187 -44.627834 -73.742538 44.667763
-66.424873 46.054035 -74.079529 44.235733 -0.019874515 -45.255741
650000000 -0.018224549 -45.628399 -66.411903 44.961742 -66.21051 42.744068
-66.368767 44.298561 -0.017031357 -45.329155 -74.180199 37.985676
-65.949532 44.833714 -74.83638 45.504814 -0.019199979 -45.990883
660000000 -0.017550522 -46.349274 -66.545509 44.598835 -66.371086 42.657265
-66.308723 40.6726 -0.017628485 -46.044426 -74.048553 48.719284
-66.462975 42.927353 -75.130997 39.550026 -0.019304829 -46.714111
670000000 -0.018257413 -47.078625 -66.110405 45.605938 -66.156952 43.555542
-66.563873 44.671112 -0.017515583 -46.761112 -74.04615 41.936096
-66.176453 41.456295 -73.54792 39.36824 -0.0194206 -47.420097
680000000 -0.019425323 -47.814777 -66.374069 42.875862 -65.915916 39.699596
-65.789894 40.122513 -0.018271232 -47.474171 -73.366638 35.126896
-65.920975 40.928429 -73.209457 40.69709 -0.020837305 -48.106098
690000000 -0.02081297 -48.546459 -66.170929 40.35767 -65.859764 41.576305
-65.639412 39.851025 -0.018366886 -48.1744 -73.065681 43.27084
-66.110168 40.759865 -74.114357 45.260834 -0.022484716 -48.760132
700000000 -0.022678318 -49.271511 -65.538025 41.885784 -65.994186 40.701733
-65.834984 41.691593 -0.017956764 -48.863232 -73.710938 46.109032
-65.683311 38.011127 -72.93998 46.466431 -0.023592627 -49.408901
710000000 -0.024213422 -49.988518 -65.917664 40.101017 -65.494858 37.698719
-65.906563 38.138672 -0.019060275 -49.55492 -73.523529 41.200363
-65.442413 40.224762 -72.652184 46.372856 -0.023900604 -50.070248
720000000 -0.024099121 -50.705109 -65.63308 38.928078 -64.954506 41.277981
-65.535545 38.599728 -0.019856328 -50.225208 -72.776154 37.85083
-66.018234 38.233437 -73.096321 34.460606 -0.024357121 -50.740341
730000000 -0.024122884 -51.419968 -65.510391 35.921669 -65.68309 35.474697
-65.460205 38.261673 -0.018898906 -50.899765 -72.40406 38.857559
-65.466103 37.986507 -73.39431 39.457539 -0.023712251 -51.436565
740000000 -0.023234142 -52.141769 -64.977783 39.426323 -65.426407 36.999977
-65.600204 36.060356 -0.016618088 -51.570114 -73.355141 37.229527
-65.263206 36.597706 -73.231232 32.198875 -0.023238344 -52.147644
750000000 -0.02200209 -52.865185 -65.635796 35.008671 -65.02195 36.919083
-65.096077 38.434238 -0.016811477 -52.250938 -71.92923 34.253586
-65.062439 35.058167 -71.939789 34.989201 -0.023320019 -52.88311
760000000 -0.023413153 -53.593929 -65.161362 37.393944 -65.030655 36.34462
-64.968887 37.757133 -0.018148117 -52.953388 -72.56498 32.284954
-65.151337 34.9081 -73.664711 39.019844 -0.023713458 -53.62833
770000000 -0.024474088 -54.320362 -64.982407 37.861115 -64.718765 33.627323
-64.824402 35.082371 -0.020229267 -53.660748 -72.120537 34.211197
-65.155617 33.02367 -73.110352 35.684185 -0.024600103 -54.366131
780000000 -0.025756001 -55.035858 -64.810089 33.776627 -65.144112 34.127502
-64.750725 35.5728 -0.022150312 -54.366177 -72.204094 39.321579
-64.913834 32.289639 -72.937035 30.931629 -0.025478045 -55.098602
790000000 -0.025825705 -55.750603 -64.784943 34.627945 -64.827202 34.261272
-64.845413 34.407677 -0.023673065 -55.080181 -72.025841 36.639473
-64.738098 32.22958 -71.899971 29.281981 -0.026774837 -55.826035
800000000 -0.026279802 -56.47517 -64.421181 33.122997 -64.653847 31.231283
-64.590996 31.338446 -0.025094118 -55.800316 -73.490562 34.398388
-64.517113 34.138859 -71.764633 38.930225 -0.026857572 -56.539089
810000000 -0.026071388 -57.204147 -64.855888 30.58919 -64.388664 33.434719
-64.427856 31.257805 -0.025467254 -56.508114 -72.857376 32.608128
-64.865433 32.196606 -72.724449 38.80827 -0.027469864 -57.232597
820000000 -0.026857043 -57.925484 -64.681839 29.696764 -64.361137 31.347618
-64.22522 31.907495 -0.025889978 -57.218369 -71.70208 34.409912
-64.528831 32.216286 -71.649773 30.896143 -0.026640857 -57.890579
830000000 -0.028659577 -58.644653 -64.496323 31.919065 -64.169632 30.565895
-64.334473 32.169495 -0.02534678 -57.905113 -71.474068 26.509552
-64.547653 30.325733 -72.584602 34.718525 -0.026100364 -58.561195
840000000 -0.030244563 -59.368423 -64.1147 29.895514 -64.155289 30.059109
-64.003281 30.065027 -0.026936729 -58.584644 -71.041573 30.639826
-64.286346 30.547434 -72.193298 28.908291 -0.026592698 -59.229557
850000000 -0.031773966 -60.082859 -64.40287 29.620144 -64.348541 29.320309
-63.9412 28.493383 -0.027591188 -59.255558 -71.924141 31.261755
-64.198593 30.543678 -72.010864 32.096619 -0.028530965 -59.92593
860000000 -0.031494331 -60.818054 -64.131561 28.024994 -63.625065 29.214642
-64.340179 27.417406 -0.027595928 -59.932301 -70.453262 33.838665
-64.026649 29.666924 -71.176971 25.021675 -0.029242076 -60.648849
870000000 -0.03153573 -61.550625 -63.830727 28.884911 -64.035492 29.193199
-63.564785 26.714739 -0.026647825 -60.608006 -70.27536 28.595062
-64.247055 28.925295 -71.42646 26.399113 -0.030413067 -61.381615
880000000 -0.031234032 -62.284081 -63.77161 26.246843 -64.072556 27.746933
-64.087013 27.002743 -0.02718607 -61.296387 -72.554588 27.937227
-63.5243 27.111906 -71.369537 24.979902 -0.031136626 -62.123291
890000000 -0.032622673 -63.021725 -63.539684 25.438267 -63.508003 26.482265
-63.544571 27.77355 -0.027368166 -61.997055 -72.066132 26.922955
-63.68787 26.445894 -71.243225 26.863722 -0.032566674 -62.879787
900000000 -0.0347424 -63.762119 -63.50771 27.689734 -63.606148 26.759644
-63.771561 26.859362 -0.030059284 -62.70697 -71.07531 21.735397
-63.505119 25.419809 -71.384293 24.269825 -0.032836746 -63.615898
910000000 -0.035572618 -64.487144 -63.570381 27.509653 -63.5807 24.715292
-63.51564 27.794865 -0.031155976 -63.418415 -71.906189 22.991976
-63.350231 25.139549 -71.303268 25.627054 -0.033917349 -64.336075
920000000 -0.036373205 -65.208847 -63.691681 26.037296 -63.408607 26.629551
-63.700687 25.731201 -0.031269755 -64.130569 -71.079437 21.062565
-63.51368 23.720442 -70.484062 27.760361 -0.031716637 -65.043304
930000000 -0.035157558 -65.947502 -62.950909 23.531755 -63.212315 23.60498
-63.684429 25.939404 -0.032062713 -64.844063 -71.041771 28.388802
